# Hz S RI R 50

   100000000000  9.1951633207247263e-01 -1.6588495332302999e-01  0.0000000000000000e+00  0.0000000000000000e+00 -6.2764807426619523e-02 -3.4732267561865232e-01  0.0000000000000000e+00  0.0000000000000000e+00
                 0.0000000000000000e+00  0.0000000000000000e+00  9.1951633207247263e-01 -1.6588495332302999e-01  0.0000000000000000e+00  0.0000000000000000e+00 -6.2764807426619523e-02 -3.4732267561865232e-01
                -6.2764807426619509e-02 -3.4732267561865221e-01  0.0000000000000000e+00  0.0000000000000000e+00  9.1951633207247241e-01 -1.6588495332302997e-01  0.0000000000000000e+00  0.0000000000000000e+00
                 0.0000000000000000e+00  0.0000000000000000e+00 -6.2764807426619509e-02 -3.4732267561865221e-01  0.0000000000000000e+00  0.0000000000000000e+00  9.1951633207247241e-01 -1.6588495332302997e-01
   200000000000  9.1973516278317291e-01  1.6213625160351247e-01  0.0000000000000000e+00  0.0000000000000000e+00 -6.2430145138031461e-02  3.4541850890158982e-01  0.0000000000000000e+00  0.0000000000000000e+00
                 0.0000000000000000e+00  0.0000000000000000e+00  9.1973516278317291e-01  1.6213625160351247e-01  0.0000000000000000e+00  0.0000000000000000e+00 -6.2430145138031461e-02  3.4541850890158982e-01
                -6.2430145138031461e-02  3.4541850890158993e-01  0.0000000000000000e+00  0.0000000000000000e+00  9.1973516278317269e-01  1.6213625160351244e-01  0.0000000000000000e+00  0.0000000000000000e+00
                 0.0000000000000000e+00  0.0000000000000000e+00 -6.2430145138031461e-02  3.4541850890158993e-01  0.0000000000000000e+00  0.0000000000000000e+00  9.1973516278317269e-01  1.6213625160351244e-01
   300000000000  2.0050026099839063e-02  2.5542639189030557e-02  0.0000000000000000e+00  0.0000000000000000e+00  9.7892586140646076e-01 -2.6927866354544649e-02  0.0000000000000000e+00  0.0000000000000000e+00
                 0.0000000000000000e+00  0.0000000000000000e+00  2.0050026099839063e-02  2.5542639189030557e-02  0.0000000000000000e+00  0.0000000000000000e+00  9.7892586140646076e-01 -2.6927866354544649e-02
                 9.7892586140646098e-01 -2.6927866354544656e-02  0.0000000000000000e+00  0.0000000000000000e+00  2.0050026099839132e-02  2.5542639189030557e-02  0.0000000000000000e+00  0.0000000000000000e+00
                 0.0000000000000000e+00  0.0000000000000000e+00  9.7892586140646098e-01 -2.6927866354544656e-02  0.0000000000000000e+00  0.0000000000000000e+00  2.0050026099839132e-02  2.5542639189030557e-02
   400000000000  9.1688226080167468e-01 -1.6835267866873219e-01  0.0000000000000000e+00  0.0000000000000000e+00 -6.5128193017621697e-02 -3.4788702467626592e-01  0.0000000000000000e+00  0.0000000000000000e+00
                 0.0000000000000000e+00  0.0000000000000000e+00  9.1688226080167468e-01 -1.6835267866873219e-01  0.0000000000000000e+00  0.0000000000000000e+00 -6.5128193017621697e-02 -3.4788702467626592e-01
                -6.5128193017621697e-02 -3.4788702467626592e-01  0.0000000000000000e+00  0.0000000000000000e+00  9.1688226080167490e-01 -1.6835267866873224e-01  0.0000000000000000e+00  0.0000000000000000e+00
                 0.0000000000000000e+00  0.0000000000000000e+00 -6.5128193017621697e-02 -3.4788702467626592e-01  0.0000000000000000e+00  0.0000000000000000e+00  9.1688226080167490e-01 -1.6835267866873224e-01
   500000000000  9.1984992636069507e-01  1.5874387867354658e-01  0.0000000000000000e+00  0.0000000000000000e+00 -6.1253306168305877e-02  3.4369619849498928e-01  0.0000000000000000e+00  0.0000000000000000e+00
                 0.0000000000000000e+00  0.0000000000000000e+00  9.1984992636069507e-01  1.5874387867354658e-01  0.0000000000000000e+00  0.0000000000000000e+00 -6.1253306168305877e-02  3.4369619849498928e-01
                -6.1253306168305904e-02  3.4369619849498934e-01  0.0000000000000000e+00  0.0000000000000000e+00  9.1984992636069507e-01  1.5874387867354658e-01  0.0000000000000000e+00  0.0000000000000000e+00
                 0.0000000000000000e+00  0.0000000000000000e+00 -6.1253306168305904e-02  3.4369619849498934e-01  0.0000000000000000e+00  0.0000000000000000e+00  9.1984992636069507e-01  1.5874387867354658e-01
   600000000000  2.9870381739660595e-02  5.0135515518761081e-02  0.0000000000000000e+00  0.0000000000000000e+00  9.6867905649460262e-01 -5.2903246125207824e-02  0.0000000000000000e+00  0.0000000000000000e+00
                 0.0000000000000000e+00  0.0000000000000000e+00  2.9870381739660595e-02  5.0135515518761081e-02  0.0000000000000000e+00  0.0000000000000000e+00  9.6867905649460262e-01 -5.2903246125207824e-02
                 9.6867905649460262e-01 -5.2903246125207824e-02  0.0000000000000000e+00  0.0000000000000000e+00  2.9870381739660595e-02  5.0135515518761088e-02  0.0000000000000000e+00  0.0000000000000000e+00
                 0.0000000000000000e+00  0.0000000000000000e+00  9.6867905649460262e-01 -5.2903246125207824e-02  0.0000000000000000e+00  0.0000000000000000e+00  2.9870381739660595e-02  5.0135515518761088e-02
   700000000000  9.1476386244390651e-01 -1.7109563945172981e-01  0.0000000000000000e+00  0.0000000000000000e+00 -6.7127201912032045e-02 -3.4876459868237669e-01  0.0000000000000000e+00  0.0000000000000000e+00
                 0.0000000000000000e+00  0.0000000000000000e+00  9.1476386244390651e-01 -1.7109563945172981e-01  0.0000000000000000e+00  0.0000000000000000e+00 -6.7127201912032045e-02 -3.4876459868237669e-01
                -6.7127201912032045e-02 -3.4876459868237675e-01  0.0000000000000000e+00  0.0000000000000000e+00  9.1476386244390628e-01 -1.7109563945172976e-01  0.0000000000000000e+00  0.0000000000000000e+00
                 0.0000000000000000e+00  0.0000000000000000e+00 -6.7127201912032045e-02 -3.4876459868237675e-01  0.0000000000000000e+00  0.0000000000000000e+00  9.1476386244390628e-01 -1.7109563945172976e-01
   800000000000  9.2020813020884007e-01  1.5545213827531215e-01  0.0000000000000000e+00  0.0000000000000000e+00 -6.0053445878723043e-02  3.4212273039749014e-01  0.0000000000000000e+00  0.0000000000000000e+00
                 0.0000000000000000e+00  0.0000000000000000e+00  9.2020813020884007e-01  1.5545213827531215e-01  0.0000000000000000e+00  0.0000000000000000e+00 -6.0053445878723043e-02  3.4212273039749014e-01
                -6.0053445878723036e-02  3.4212273039749003e-01  0.0000000000000000e+00  0.0000000000000000e+00  9.2020813020884007e-01  1.5545213827531212e-01  0.0000000000000000e+00  0.0000000000000000e+00
                 0.0000000000000000e+00  0.0000000000000000e+00 -6.0053445878723036e-02  3.4212273039749003e-01  0.0000000000000000e+00  0.0000000000000000e+00  9.2020813020884007e-01  1.5545213827531212e-01
   900000000000  3.9045502038272492e-02  7.3989714281440022e-02  0.0000000000000000e+00  0.0000000000000000e+00  9.5917413284025010e-01 -7.8139253494229566e-02  0.0000000000000000e+00  0.0000000000000000e+00
                 0.0000000000000000e+00  0.0000000000000000e+00  3.9045502038272492e-02  7.3989714281440022e-02  0.0000000000000000e+00  0.0000000000000000e+00  9.5917413284025010e-01 -7.8139253494229566e-02
                 9.5917413284024988e-01 -7.8139253494229552e-02  0.0000000000000000e+00  0.0000000000000000e+00  3.9045502038272423e-02  7.3989714281440022e-02  0.0000000000000000e+00  0.0000000000000000e+00
                 0.0000000000000000e+00  0.0000000000000000e+00  9.5917413284024988e-01 -7.8139253494229552e-02  0.0000000000000000e+00  0.0000000000000000e+00  3.9045502038272423e-02  7.3989714281440022e-02
  1000000000000  9.1278985500166498e-01 -1.7392442569729624e-01  0.0000000000000000e+00  0.0000000000000000e+00 -6.9059935989183460e-02 -3.4975236716916153e-01  0.0000000000000000e+00  0.0000000000000000e+00
                 0.0000000000000000e+00  0.0000000000000000e+00  9.1278985500166498e-01 -1.7392442569729624e-01  0.0000000000000000e+00  0.0000000000000000e+00 -6.9059935989183460e-02 -3.4975236716916153e-01
                -6.9059935989183474e-02 -3.4975236716916164e-01  0.0000000000000000e+00  0.0000000000000000e+00  9.1278985500166498e-01 -1.7392442569729621e-01  0.0000000000000000e+00  0.0000000000000000e+00
                 0.0000000000000000e+00  0.0000000000000000e+00 -6.9059935989183474e-02 -3.4975236716916164e-01  0.0000000000000000e+00  0.0000000000000000e+00  9.1278985500166498e-01 -1.7392442569729621e-01
  1100000000000  9.2067064481123995e-01  1.5222839171564817e-01  0.0000000000000000e+00  0.0000000000000000e+00 -5.8834422965908934e-02  3.4064101414884418e-01  0.0000000000000000e+00  0.0000000000000000e+00
                 0.0000000000000000e+00  0.0000000000000000e+00  9.2067064481123995e-01  1.5222839171564817e-01  0.0000000000000000e+00  0.0000000000000000e+00 -5.8834422965908934e-02  3.4064101414884418e-01
                -5.8834422965908947e-02  3.4064101414884418e-01  0.0000000000000000e+00  0.0000000000000000e+00  9.2067064481124017e-01  1.5222839171564817e-01  0.0000000000000000e+00  0.0000000000000000e+00
                 0.0000000000000000e+00  0.0000000000000000e+00 -5.8834422965908947e-02  3.4064101414884418e-01  0.0000000000000000e+00  0.0000000000000000e+00  9.2067064481124017e-01  1.5222839171564817e-01
  1200000000000  4.8423279946192846e-02  9.7130433026768576e-02  0.0000000000000000e+00  0.0000000000000000e+00  9.4951558644016132e-01 -1.0266128000409133e-01  0.0000000000000000e+00  0.0000000000000000e+00
                 0.0000000000000000e+00  0.0000000000000000e+00  4.8423279946192846e-02  9.7130433026768576e-02  0.0000000000000000e+00  0.0000000000000000e+00  9.4951558644016132e-01 -1.0266128000409133e-01
                 9.4951558644016099e-01 -1.0266128000409130e-01  0.0000000000000000e+00  0.0000000000000000e+00  4.8423279946192846e-02  9.7130433026768589e-02  0.0000000000000000e+00  0.0000000000000000e+00
                 0.0000000000000000e+00  0.0000000000000000e+00  9.4951558644016099e-01 -1.0266128000409130e-01  0.0000000000000000e+00  0.0000000000000000e+00  4.8423279946192846e-02  9.7130433026768589e-02
  1300000000000  9.1087737558439963e-01 -1.7680369501849413e-01  0.0000000000000000e+00  0.0000000000000000e+00 -7.0977654532959136e-02 -3.5080882743180725e-01  0.0000000000000000e+00  0.0000000000000000e+00
                 0.0000000000000000e+00  0.0000000000000000e+00  9.1087737558439963e-01 -1.7680369501849413e-01  0.0000000000000000e+00  0.0000000000000000e+00 -7.0977654532959136e-02 -3.5080882743180725e-01
                -7.0977654532959136e-02 -3.5080882743180725e-01  0.0000000000000000e+00  0.0000000000000000e+00  9.1087737558439985e-01 -1.7680369501849419e-01  0.0000000000000000e+00  0.0000000000000000e+00
                 0.0000000000000000e+00  0.0000000000000000e+00 -7.0977654532959136e-02 -3.5080882743180725e-01  0.0000000000000000e+00  0.0000000000000000e+00  9.1087737558439985e-01 -1.7680369501849419e-01
  1400000000000  9.2118808625704440e-01  1.4905648201356164e-01  0.0000000000000000e+00  0.0000000000000000e+00 -5.7606841880889423e-02  3.3922802028518534e-01  0.0000000000000000e+00  0.0000000000000000e+00
                 0.0000000000000000e+00  0.0000000000000000e+00  9.2118808625704440e-01  1.4905648201356164e-01  0.0000000000000000e+00  0.0000000000000000e+00 -5.7606841880889423e-02  3.3922802028518534e-01
                -5.7606841880889402e-02  3.3922802028518517e-01  0.0000000000000000e+00  0.0000000000000000e+00  9.2118808625704451e-01  1.4905648201356170e-01  0.0000000000000000e+00  0.0000000000000000e+00
                 0.0000000000000000e+00  0.0000000000000000e+00 -5.7606841880889402e-02  3.3922802028518517e-01  0.0000000000000000e+00  0.0000000000000000e+00  9.2118808625704451e-01  1.4905648201356170e-01
  1500000000000  5.8290352251286814e-02  1.1954291551667480e-01  0.0000000000000000e+00  0.0000000000000000e+00  9.3939832839790738e-01 -1.2645470158808764e-01  0.0000000000000000e+00  0.0000000000000000e+00
                 0.0000000000000000e+00  0.0000000000000000e+00  5.8290352251286814e-02  1.1954291551667480e-01  0.0000000000000000e+00  0.0000000000000000e+00  9.3939832839790738e-01 -1.2645470158808764e-01
                 9.3939832839790716e-01 -1.2645470158808761e-01  0.0000000000000000e+00  0.0000000000000000e+00  5.8290352251286814e-02  1.1954291551667480e-01  0.0000000000000000e+00  0.0000000000000000e+00
                 0.0000000000000000e+00  0.0000000000000000e+00  9.3939832839790716e-01 -1.2645470158808761e-01  0.0000000000000000e+00  0.0000000000000000e+00  5.8290352251286814e-02  1.1954291551667480e-01
  1600000000000  9.0899105648145639e-01 -1.7971970805915566e-01  0.0000000000000000e+00  0.0000000000000000e+00 -7.2900271921606558e-02 -3.5191712403668296e-01  0.0000000000000000e+00  0.0000000000000000e+00
                 0.0000000000000000e+00  0.0000000000000000e+00  9.0899105648145639e-01 -1.7971970805915566e-01  0.0000000000000000e+00  0.0000000000000000e+00 -7.2900271921606558e-02 -3.5191712403668296e-01
                -7.2900271921606558e-02 -3.5191712403668296e-01  0.0000000000000000e+00  0.0000000000000000e+00  9.0899105648145639e-01 -1.7971970805915566e-01  0.0000000000000000e+00  0.0000000000000000e+00
                 0.0000000000000000e+00  0.0000000000000000e+00 -7.2900271921606558e-02 -3.5191712403668296e-01  0.0000000000000000e+00  0.0000000000000000e+00  9.0899105648145639e-01 -1.7971970805915566e-01
  1700000000000  9.2173628048755152e-01  1.4592731780405785e-01  0.0000000000000000e+00  0.0000000000000000e+00 -5.6377355485882900e-02  3.3787164653394847e-01  0.0000000000000000e+00  0.0000000000000000e+00
                 0.0000000000000000e+00  0.0000000000000000e+00  9.2173628048755152e-01  1.4592731780405785e-01  0.0000000000000000e+00  0.0000000000000000e+00 -5.6377355485882900e-02  3.3787164653394847e-01
                -5.6377355485882887e-02  3.3787164653394836e-01  0.0000000000000000e+00  0.0000000000000000e+00  9.2173628048755174e-01  1.4592731780405790e-01  0.0000000000000000e+00  0.0000000000000000e+00
                 0.0000000000000000e+00  0.0000000000000000e+00 -5.6377355485882887e-02  3.3787164653394836e-01  0.0000000000000000e+00  0.0000000000000000e+00  9.2173628048755174e-01  1.4592731780405790e-01
  1800000000000  6.8759024758980339e-02  1.4119906363354881e-01  0.0000000000000000e+00  0.0000000000000000e+00  9.2870058219893614e-01 -1.4949152471441393e-01  0.0000000000000000e+00  0.0000000000000000e+00
                 0.0000000000000000e+00  0.0000000000000000e+00  6.8759024758980339e-02  1.4119906363354881e-01  0.0000000000000000e+00  0.0000000000000000e+00  9.2870058219893614e-01 -1.4949152471441393e-01
                 9.2870058219893625e-01 -1.4949152471441396e-01  0.0000000000000000e+00  0.0000000000000000e+00  6.8759024758980408e-02  1.4119906363354887e-01  0.0000000000000000e+00  0.0000000000000000e+00
                 0.0000000000000000e+00  0.0000000000000000e+00  9.2870058219893625e-01 -1.4949152471441396e-01  0.0000000000000000e+00  0.0000000000000000e+00  6.8759024758980408e-02  1.4119906363354887e-01
  1900000000000  9.0711162772263720e-01 -1.8266557245154272e-01  0.0000000000000000e+00  0.0000000000000000e+00 -7.4838186477755503e-02 -3.5306850350657032e-01  0.0000000000000000e+00  0.0000000000000000e+00
                 0.0000000000000000e+00  0.0000000000000000e+00  9.0711162772263720e-01 -1.8266557245154272e-01  0.0000000000000000e+00  0.0000000000000000e+00 -7.4838186477755503e-02 -3.5306850350657032e-01
                -7.4838186477755517e-02 -3.5306850350657043e-01  0.0000000000000000e+00  0.0000000000000000e+00  9.0711162772263743e-01 -1.8266557245154275e-01  0.0000000000000000e+00  0.0000000000000000e+00
                 0.0000000000000000e+00  0.0000000000000000e+00 -7.4838186477755517e-02 -3.5306850350657043e-01  0.0000000000000000e+00  0.0000000000000000e+00  9.0711162772263743e-01 -1.8266557245154275e-01
  2000000000000  9.2230135677852931e-01  1.4283508951318918e-01  0.0000000000000000e+00  0.0000000000000000e+00 -5.5150146660965023e-02  3.3656448932670735e-01  0.0000000000000000e+00  0.0000000000000000e+00
                 0.0000000000000000e+00  0.0000000000000000e+00  9.2230135677852931e-01  1.4283508951318918e-01  0.0000000000000000e+00  0.0000000000000000e+00 -5.5150146660965023e-02  3.3656448932670735e-01
                -5.5150146660965002e-02  3.3656448932670729e-01  0.0000000000000000e+00  0.0000000000000000e+00  9.2230135677852954e-01  1.4283508951318921e-01  0.0000000000000000e+00  0.0000000000000000e+00
                 0.0000000000000000e+00  0.0000000000000000e+00 -5.5150146660965002e-02  3.3656448932670729e-01  0.0000000000000000e+00  0.0000000000000000e+00  9.2230135677852954e-01  1.4283508951318921e-01
  2100000000000  7.9865891891229598e-02  1.6206708066487446e-01  0.0000000000000000e+00  0.0000000000000000e+00  9.1738012169886440e-01 -1.7174004201625445e-01  0.0000000000000000e+00  0.0000000000000000e+00
                 0.0000000000000000e+00  0.0000000000000000e+00  7.9865891891229598e-02  1.6206708066487446e-01  0.0000000000000000e+00  0.0000000000000000e+00  9.1738012169886440e-01 -1.7174004201625445e-01
                 9.1738012169886440e-01 -1.7174004201625445e-01  0.0000000000000000e+00  0.0000000000000000e+00  7.9865891891229654e-02  1.6206708066487446e-01  0.0000000000000000e+00  0.0000000000000000e+00
                 0.0000000000000000e+00  0.0000000000000000e+00  9.1738012169886440e-01 -1.7174004201625445e-01  0.0000000000000000e+00  0.0000000000000000e+00  7.9865891891229654e-02  1.6206708066487446e-01
  2200000000000  9.0522700063546702e-01 -1.8563731942065101e-01  0.0000000000000000e+00  0.0000000000000000e+00 -7.6797845548865290e-02 -3.5425775785613750e-01  0.0000000000000000e+00  0.0000000000000000e+00
                 0.0000000000000000e+00  0.0000000000000000e+00  9.0522700063546702e-01 -1.8563731942065101e-01  0.0000000000000000e+00  0.0000000000000000e+00 -7.6797845548865290e-02 -3.5425775785613750e-01
                -7.6797845548865290e-02 -3.5425775785613750e-01  0.0000000000000000e+00  0.0000000000000000e+00  9.0522700063546679e-01 -1.8563731942065095e-01  0.0000000000000000e+00  0.0000000000000000e+00
                 0.0000000000000000e+00  0.0000000000000000e+00 -7.6797845548865290e-02 -3.5425775785613750e-01  0.0000000000000000e+00  0.0000000000000000e+00  9.0522700063546679e-01 -1.8563731942065095e-01
  2300000000000  9.2287455785122330e-01  1.3977574083331556e-01  0.0000000000000000e+00  0.0000000000000000e+00 -5.3927938604752965e-02  3.3530155658710953e-01  0.0000000000000000e+00  0.0000000000000000e+00
                 0.0000000000000000e+00  0.0000000000000000e+00  9.2287455785122330e-01  1.3977574083331556e-01  0.0000000000000000e+00  0.0000000000000000e+00 -5.3927938604752965e-02  3.3530155658710953e-01
                -5.3927938604752965e-02  3.3530155658710953e-01  0.0000000000000000e+00  0.0000000000000000e+00  9.2287455785122330e-01  1.3977574083331556e-01  0.0000000000000000e+00  0.0000000000000000e+00
                 0.0000000000000000e+00  0.0000000000000000e+00 -5.3927938604752965e-02  3.3530155658710953e-01  0.0000000000000000e+00  0.0000000000000000e+00  9.2287455785122330e-01  1.3977574083331556e-01
  2400000000000  9.1608231656753497e-02  1.8211595962759303e-01  0.0000000000000000e+00  0.0000000000000000e+00  9.0543599485619608e-01 -1.9316932636483472e-01  0.0000000000000000e+00  0.0000000000000000e+00
                 0.0000000000000000e+00  0.0000000000000000e+00  9.1608231656753497e-02  1.8211595962759303e-01  0.0000000000000000e+00  0.0000000000000000e+00  9.0543599485619608e-01 -1.9316932636483472e-01
                 9.0543599485619608e-01 -1.9316932636483472e-01  0.0000000000000000e+00  0.0000000000000000e+00  9.1608231656753497e-02  1.8211595962759303e-01  0.0000000000000000e+00  0.0000000000000000e+00
                 0.0000000000000000e+00  0.0000000000000000e+00  9.0543599485619608e-01 -1.9316932636483472e-01  0.0000000000000000e+00  0.0000000000000000e+00  9.1608231656753497e-02  1.8211595962759303e-01
