# Hz S RI R 100

1.000000000000000e+05  9.6618357554739565e-03  2.3177521598801793e-06  9.9033816424438281e-01 -2.8518356203238571e-06  9.9033816424438281e-01 -2.8518356203238406e-06  9.6618357554740276e-03  2.3177521598801793e-06
1.000921550516792e+05  9.6618357554833639e-03  2.3198880885405421e-06  9.9033816424437326e-01 -2.8544637338730369e-06  9.9033816424437326e-01 -2.8544637338730216e-06  9.6618357554832928e-03  2.3198880885405430e-06
1.001843950288942e+05  9.6618357554897252e-03  2.3220259885454009e-06  9.9033816424436671e-01 -2.8570942723397798e-06  9.9033816424436638e-01 -2.8570942723397751e-06  9.6618357554897252e-03  2.3220259885454005e-06
1.002767200099076e+05  9.6618357555092096e-03  2.3241658457563443e-06  9.9033816424434673e-01 -2.8597272220045670e-06  9.9033816424434706e-01 -2.8597272220045627e-06  9.6618357555091385e-03  2.3241658457563443e-06
1.003691300730549e+05  9.6618357555241178e-03  2.3263076793347064e-06  9.9033816424433152e-01 -2.8623626024461297e-06  9.9033816424433152e-01 -2.8623626024461322e-06  9.6618357555241178e-03  2.3263076793347068e-06
1.004616252967439e+05  9.6618357555356364e-03  2.3284514902791632e-06  9.9033816424431997e-01 -2.8650004150819653e-06  9.9033816424431986e-01 -2.8650004150819577e-06  9.6618357555356364e-03  2.3284514902791628e-06
1.005542057594540e+05  9.6618357555479425e-03  2.3305972761124005e-06  9.9033816424430732e-01 -2.8676406578541221e-06  9.9033816424430732e-01 -2.8676406578541297e-06  9.6618357555479425e-03  2.3305972761124005e-06
1.006468715397374e+05  9.6618357555540001e-03  2.3327450456075220e-06  9.9033816424430099e-01 -2.8702833399548790e-06  9.9033816424430099e-01 -2.8702833399548718e-06  9.6618357555540713e-03  2.3327450456075225e-06
1.007396227162184e+05  9.6618357555761092e-03  2.3348947783971354e-06  9.9033816424427856e-01 -2.8729284414379789e-06  9.9033816424427890e-01 -2.8729284414379819e-06  9.6618357555761803e-03  2.3348947783971354e-06
1.008324593675940e+05  9.6618357555885558e-03  2.3370465020076980e-06  9.9033816424426591e-01 -2.8755759902487642e-06  9.9033816424426591e-01 -2.8755759902487625e-06  9.6618357555884847e-03  2.3370465020076980e-06
1.009253815726338e+05  9.6618357555909879e-03  2.3392002184986082e-06  9.9033816424426324e-01 -2.8782259888673106e-06  9.9033816424426324e-01 -2.8782259888672987e-06  9.6618357555909879e-03  2.3392002184986086e-06
1.010183894101795e+05  9.6618357556050149e-03  2.3413559081699363e-06  9.9033816424424903e-01 -2.8808784180159667e-06  9.9033816424424903e-01 -2.8808784180159616e-06  9.6618357556050149e-03  2.3413559081699367e-06
1.011114829591460e+05  9.6618357556263103e-03  2.3435135772005784e-06  9.9033816424422760e-01 -2.8835332842948653e-06  9.9033816424422760e-01 -2.8835332842948721e-06  9.6618357556263103e-03  2.3435135772005788e-06
1.012046622985209e+05  9.6618357556320193e-03  2.3456732502518432e-06  9.9033816424422139e-01 -2.8861906127858922e-06  9.9033816424422128e-01 -2.8861906127858986e-06  9.6618357556320193e-03  2.3456732502518436e-06
1.012979275073638e+05  9.6618357556393537e-03  2.3478349119467350e-06  9.9033816424421395e-01 -2.8888503885352719e-06  9.9033816424421373e-01 -2.8888503885352609e-06  9.6618357556393537e-03  2.3478349119467350e-06
1.013912786648085e+05  9.6618357556542377e-03  2.3499985581319910e-06  9.9033816424419874e-01 -2.8915126078127009e-06  9.9033816424419863e-01 -2.8915126078126899e-06  9.6618357556542377e-03  2.3499985581319906e-06
1.014847158500602e+05  9.6618357556752781e-03  2.3521641921583780e-06  9.9033816424417753e-01 -2.8941772743918960e-06  9.9033816424417742e-01 -2.8941772743918850e-06  9.6618357556752781e-03  2.3521641921583785e-06
1.015782391423984e+05  9.6618357556860282e-03  2.3543318322074175e-06  9.9033816424416643e-01 -2.8968444068768662e-06  9.9033816424416643e-01 -2.8968444068768560e-06  9.6618357556860282e-03  2.3543318322074175e-06
1.016718486211751e+05  9.6618357556919228e-03  2.3565014747497549e-06  9.9033816424416021e-01 -2.8995140021623632e-06  9.9033816424416021e-01 -2.8995140021623679e-06  9.6618357556919228e-03  2.3565014747497549e-06
1.017655443658152e+05  9.6618357557126840e-03  2.3586731018903965e-06  9.9033816424413923e-01 -2.9021860427787209e-06  9.9033816424413923e-01 -2.9021860427787260e-06  9.6618357557126840e-03  2.3586731018903969e-06
1.018593264558172e+05  9.6618357557203671e-03  2.3608467433717799e-06  9.9033816424413113e-01 -2.9048605588913762e-06  9.9033816424413113e-01 -2.9048605588913791e-06  9.6618357557203671e-03  2.3608467433717794e-06
1.019531949707528e+05  9.6618357557378999e-03  2.3630223780998463e-06  9.9033816424411325e-01 -2.9075375298325502e-06  9.9033816424411358e-01 -2.9075375298325565e-06  9.6618357557378999e-03  2.3630223780998459e-06
1.020471499902667e+05  9.6618357557516962e-03  2.3652000216363138e-06  9.9033816424409948e-01 -2.9102169715885629e-06  9.9033816424409948e-01 -2.9102169715885506e-06  9.6618357557516962e-03  2.3652000216363134e-06
1.021411915940777e+05  9.6618357557586160e-03  2.3673796788305537e-06  9.9033816424409227e-01 -2.9128988894343523e-06  9.9033816424409227e-01 -2.9128988894343502e-06  9.6618357557586160e-03  2.3673796788305537e-06
1.022353198619770e+05  9.6618357557774013e-03  2.3695613328961897e-06  9.9033816424407284e-01 -2.9155832670107739e-06  9.9033816424407317e-01 -2.9155832670107777e-06  9.6618357557774013e-03  2.3695613328961893e-06
1.023295348738302e+05  9.6618357557863212e-03  2.3717450073107302e-06  9.9033816424406396e-01 -2.9182701282206556e-06  9.9033816424406396e-01 -2.9182701282206531e-06  9.6618357557863212e-03  2.3717450073107294e-06
1.024238367095765e+05  9.6618357557999995e-03  2.3739306893729906e-06  9.9033816424404986e-01 -2.9209594607905701e-06  9.9033816424404986e-01 -2.9209594607905790e-06  9.6618357557999995e-03  2.3739306893729906e-06
1.025182254492280e+05  9.6618357558181638e-03  2.3761183811483067e-06  9.9033816424403143e-01 -2.9236512672131927e-06  9.9033816424403143e-01 -2.9236512672131935e-06  9.6618357558181638e-03  2.3761183811483062e-06
1.026127011728714e+05  9.6618357558186530e-03  2.3783081067135830e-06  9.9033816424403087e-01 -2.9263455719918718e-06  9.9033816424403076e-01 -2.9263455719918727e-06  9.6618357558186530e-03  2.3783081067135835e-06
1.027072639606669e+05  9.6618357558480809e-03  2.3804998213498233e-06  9.9033816424400090e-01 -2.9290423308383969e-06  9.9033816424400090e-01 -2.9290423308384092e-06  9.6618357558480809e-03  2.3804998213498238e-06
1.028019138928482e+05  9.6618357558438082e-03  2.3826935894825644e-06  9.9033816424400511e-01 -2.9317416086032539e-06  9.9033816424400511e-01 -2.9317416086032547e-06  9.6618357558438082e-03  2.3826935894825640e-06
1.028966510497236e+05  9.6618357558700824e-03  2.3848893487134086e-06  9.9033816424397847e-01 -2.9344433433206287e-06  9.9033816424397836e-01 -2.9344433433206253e-06  9.6618357558701518e-03  2.3848893487134077e-06
1.029914755116747e+05  9.6618357558748459e-03  2.3870871529567948e-06  9.9033816424397336e-01 -2.9371475893312728e-06  9.9033816424397336e-01 -2.9371475893312783e-06  9.6618357558748459e-03  2.3870871529567948e-06
1.030863873591577e+05  9.6618357559002596e-03  2.3892869620641751e-06  9.9033816424394761e-01 -2.9398543069187661e-06  9.9033816424394783e-01 -2.9398543069187750e-06  9.6618357559002596e-03  2.3892869620641751e-06
1.031813866727030e+05  9.6618357559045860e-03  2.3914888194622997e-06  9.9033816424394305e-01 -2.9425635399375672e-06  9.9033816424394305e-01 -2.9425635399375786e-06  9.6618357559045860e-03  2.3914888194622992e-06
1.032764735329145e+05  9.6618357559149978e-03  2.3936926999295500e-06  9.9033816424393251e-01 -2.9452752635981104e-06  9.9033816424393251e-01 -2.9452752635981147e-06  9.6618357559149978e-03  2.3936926999295496e-06
1.033716480204713e+05  9.6618357559328880e-03  2.3958986038520113e-06  9.9033816424391430e-01 -2.9479894787174498e-06  9.9033816424391430e-01 -2.9479894787174582e-06  9.6618357559328880e-03  2.3958986038520105e-06
1.034669102161264e+05  9.6618357559379829e-03  2.3981065535315237e-06  9.9033816424390886e-01 -2.9507062080275468e-06  9.9033816424390908e-01 -2.9507062080275523e-06  9.6618357559379829e-03  2.3981065535315232e-06
1.035622602007070e+05  9.6618357559566190e-03  2.4003165244351512e-06  9.9033816424388987e-01 -2.9534254274286753e-06  9.9033816424388987e-01 -2.9534254274286677e-06  9.6618357559566190e-03  2.4003165244351517e-06
1.036576980551153e+05  9.6618357559642709e-03  2.4025285429003866e-06  9.9033816424388210e-01 -2.9561471636889843e-06  9.9033816424388210e-01 -2.9561471636889821e-06  9.6618357559642709e-03  2.4025285429003861e-06
1.037532238603275e+05  9.6618357559798227e-03  2.4047425920783319e-06  9.9033816424386634e-01 -2.9588714003931569e-06  9.9033816424386634e-01 -2.9588714003931488e-06  9.6618357559797533e-03  2.4047425920783319e-06
1.038488376973949e+05  9.6618357559926094e-03  2.4069586842547816e-06  9.9033816424385324e-01 -2.9615981502592539e-06  9.9033816424385290e-01 -2.9615981502592476e-06  9.6618357559926094e-03  2.4069586842547816e-06
1.039445396474434e+05  9.6618357560139222e-03  2.4091768102676011e-06  9.9033816424383148e-01 -2.9643274045590659e-06  9.9033816424383148e-01 -2.9643274045590668e-06  9.6618357560139222e-03  2.4091768102676015e-06
1.040403297916732e+05  9.6618357560219487e-03  2.4113969936343009e-06  9.9033816424382315e-01 -2.9670591872425329e-06  9.9033816424382293e-01 -2.9670591872425265e-06  9.6618357560219487e-03  2.4113969936343014e-06
1.041362082113600e+05  9.6618357560346712e-03  2.4136192184040797e-06  9.9033816424381016e-01 -2.9697934827939593e-06  9.9033816424381016e-01 -2.9697934827939475e-06  9.6618357560346712e-03  2.4136192184040789e-06
1.042321749878542e+05  9.6618357560479731e-03  2.4158434904912586e-06  9.9033816424379650e-01 -2.9725302975619018e-06  9.9033816424379650e-01 -2.9725302975619090e-06  9.6618357560479731e-03  2.4158434904912590e-06
1.043282302025806e+05  9.6618357560684810e-03  2.4180698052050627e-06  9.9033816424377585e-01 -2.9752696272908781e-06  9.9033816424377574e-01 -2.9752696272908641e-06  9.6618357560684810e-03  2.4180698052050631e-06
1.044243739370400e+05  9.6618357560736834e-03  2.4202981868973949e-06  9.9033816424377052e-01 -2.9780114967667295e-06  9.9033816424377030e-01 -2.9780114967667227e-06  9.6618357560736834e-03  2.4202981868973949e-06
1.045206062728074e+05  9.6618357560877537e-03  2.4225286132873555e-06  9.9033816424375576e-01 -2.9807558841456608e-06  9.9033816424375609e-01 -2.9807558841456532e-06  9.6618357560877537e-03  2.4225286132873555e-06
1.046169272915336e+05  9.6618357561022716e-03  2.4247610947513701e-06  9.9033816424374110e-01 -2.9835028002396793e-06  9.9033816424374110e-01 -2.9835028002396793e-06  9.6618357561022716e-03  2.4247610947513692e-06
1.047133370749445e+05  9.6618357561120763e-03  2.4269956382551897e-06  9.9033816424373111e-01 -2.9862522524507322e-06  9.9033816424373100e-01 -2.9862522524507318e-06  9.6618357561120763e-03  2.4269956382551897e-06
1.048098357048410e+05  9.6618357561299890e-03  2.4292322330009647e-06  9.9033816424371290e-01 -2.9890042304185965e-06  9.9033816424371290e-01 -2.9890042304185880e-06  9.6618357561299179e-03  2.4292322330009647e-06
1.049064232630997e+05  9.6618357561466701e-03  2.4314708899868278e-06  9.9033816424369570e-01 -2.9917587455781483e-06  9.9033816424369603e-01 -2.9917587455781534e-06  9.6618357561466701e-03  2.4314708899868282e-06
1.050030998316728e+05  9.6618357561530643e-03  2.4337116204083481e-06  9.9033816424368915e-01 -2.9945158095621219e-06  9.9033816424368948e-01 -2.9945158095621283e-06  9.6618357561530643e-03  2.4337116204083481e-06
1.050998654925875e+05  9.6618357561754440e-03  2.4359543997593137e-06  9.9033816424366661e-01 -2.9972753983039459e-06  9.9033816424366683e-01 -2.9972753983039442e-06  9.6618357561754440e-03  2.4359543997593137e-06
1.051967203279472e+05  9.6618357561790991e-03  2.4381992647932625e-06  9.9033816424366250e-01 -3.0000375489936098e-06  9.9033816424366250e-01 -3.0000375489935967e-06  9.6618357561790991e-03  2.4381992647932625e-06
1.052936644199303e+05  9.6618357562006200e-03  2.4404461806943156e-06  9.9033816424364063e-01 -3.0028022272562698e-06  9.9033816424364063e-01 -3.0028022272562842e-06  9.6618357562006200e-03  2.4404461806943156e-06
1.053906978507914e+05  9.6618357562119218e-03  2.4426951774376811e-06  9.9033816424362908e-01 -3.0055694635048333e-06  9.9033816424362908e-01 -3.0055694635048439e-06  9.6618357562119218e-03  2.4426951774376811e-06
1.054878207028611e+05  9.6618357562242956e-03  2.4449462457692563e-06  9.9033816424361643e-01 -3.0083392489255577e-06  9.9033816424361643e-01 -3.0083392489255454e-06  9.6618357562242956e-03  2.4449462457692567e-06
1.055850330585451e+05  9.6618357562486094e-03  2.4471993766487103e-06  9.9033816424359178e-01 -3.0111115749188416e-06  9.9033816424359178e-01 -3.0111115749188488e-06  9.6618357562486094e-03  2.4471993766487090e-06
1.056823350003258e+05  9.6618357562454956e-03  2.4494546113878439e-06  9.9033816424359467e-01 -3.0138864832347288e-06  9.9033816424359467e-01 -3.0138864832347228e-06  9.6618357562454245e-03  2.4494546113878439e-06
1.057797266107614e+05  9.6618357562683280e-03  2.4517118984440815e-06  9.9033816424357157e-01 -3.0166639227747006e-06  9.9033816424357157e-01 -3.0166639227746900e-06  9.6618357562683280e-03  2.4517118984440815e-06
1.058772079724857e+05  9.6618357562702085e-03  2.4539712866722544e-06  9.9033816424356913e-01 -3.0194439428321474e-06  9.9033816424356913e-01 -3.0194439428321584e-06  9.6618357562702085e-03  2.4539712866722544e-06
1.059747791682094e+05  9.6618357562934416e-03  2.4562327357424393e-06  9.9033816424354593e-01 -3.0222265035214159e-06  9.9033816424354570e-01 -3.0222265035214112e-06  9.6618357562934416e-03  2.4562327357424393e-06
1.060724402807188e+05  9.6618357562978149e-03  2.4584962877436590e-06  9.9033816424354126e-01 -3.0250116473712747e-06  9.9033816424354126e-01 -3.0250116473712671e-06  9.6618357562978149e-03  2.4584962877436594e-06
1.061701913928770e+05  9.6618357563215840e-03  2.4607619063816264e-06  9.9033816424351706e-01 -3.0277993385322615e-06  9.9033816424351706e-01 -3.0277993385322585e-06  9.6618357563215840e-03  2.4607619063816259e-06
1.062680325876232e+05  9.6618357563312360e-03  2.4630296270149442e-06  9.9033816424350729e-01 -3.0305896128039616e-06  9.9033816424350718e-01 -3.0305896128039718e-06  9.6618357563312360e-03  2.4630296270149442e-06
1.063659639479728e+05  9.6618357563538725e-03  2.4652994245059022e-06  9.9033816424348420e-01 -3.0333824454936548e-06  9.9033816424348420e-01 -3.0333824454936612e-06  9.6618357563538725e-03  2.4652994245059027e-06
1.064639855570182e+05  9.6618357563628063e-03  2.4675713274663452e-06  9.9033816424347498e-01 -3.0361778656553764e-06  9.9033816424347498e-01 -3.0361778656553781e-06  9.6618357563628063e-03  2.4675713274663447e-06
1.065620974979283e+05  9.6618357563774803e-03  2.4698453183571209e-06  9.9033816424345988e-01 -3.0389758561953124e-06  9.9033816424346022e-01 -3.0389758561953221e-06  9.6618357563774803e-03  2.4698453183571209e-06
1.066602998539479e+05  9.6618357563887699e-03  2.4721214083610941e-06  9.9033816424344878e-01 -3.0417764287403969e-06  9.9033816424344856e-01 -3.0417764287403901e-06  9.6618357563887699e-03  2.4721214083610941e-06
1.067585927083998e+05  9.6618357564048178e-03  2.4743995910837087e-06  9.9033816424343213e-01 -3.0445795773415618e-06  9.9033816424343213e-01 -3.0445795773415465e-06  9.6618357564048178e-03  2.4743995910837087e-06
1.068569761446822e+05  9.6618357564196393e-03  2.4766798745680897e-06  9.9033816424341692e-01 -3.0473853104869788e-06  9.9033816424341725e-01 -3.0473853104869801e-06  9.6618357564195682e-03  2.4766798745680889e-06
1.069554502462712e+05  9.6618357564374133e-03  2.4789622564106769e-06  9.9033816424339882e-01 -3.0501936262191956e-06  9.9033816424339882e-01 -3.0501936262192028e-06  9.6618357564373439e-03  2.4789622564106773e-06
1.070540150967196e+05  9.6618357564517299e-03  2.4812467450930137e-06  9.9033816424338439e-01 -3.0530045334656094e-06  9.9033816424338439e-01 -3.0530045334656060e-06  9.6618357564518011e-03  2.4812467450930128e-06
1.071526707796567e+05  9.6618357564630056e-03  2.4835333421758560e-06  9.9033816424337262e-01 -3.0558180342336358e-06  9.9033816424337262e-01 -3.0558180342336337e-06  9.6618357564630750e-03  2.4835333421758560e-06
1.072514173787894e+05  9.6618357564749371e-03  2.4858220458991232e-06  9.9033816424336063e-01 -3.0586341272104839e-06  9.9033816424336063e-01 -3.0586341272104848e-06  9.6618357564749371e-03  2.4858220458991240e-06
1.073502549779017e+05  9.6618357564908653e-03  2.4881128547246610e-06  9.9033816424334453e-01 -3.0614528113056911e-06  9.9033816424334431e-01 -3.0614528113056813e-06  9.6618357564908653e-03  2.4881128547246606e-06
1.074491836608544e+05  9.6618357565070260e-03  2.4904057744119976e-06  9.9033816424332788e-01 -3.0642740927264227e-06  9.9033816424332821e-01 -3.0642740927264333e-06  9.6618357565070260e-03  2.4904057744119980e-06
1.075482035115860e+05  9.6618357565194518e-03  2.4927008109540272e-06  9.9033816424331511e-01 -3.0670979779136614e-06  9.9033816424331489e-01 -3.0670979779136618e-06  9.6618357565194518e-03  2.4927008109540268e-06
1.076473146141124e+05  9.6618357565344832e-03  2.4949979599045822e-06  9.9033816424329979e-01 -3.0699244628703167e-06  9.9033816424329957e-01 -3.0699244628703234e-06  9.6618357565344832e-03  2.4949979599045822e-06
1.077465170525263e+05  9.6618357565441022e-03  2.4972972312067163e-06  9.9033816424328969e-01 -3.0727535579881067e-06  9.9033816424328969e-01 -3.0727535579880966e-06  9.6618357565441022e-03  2.4972972312067163e-06
1.078458109109988e+05  9.6618357565648998e-03  2.4995986102270773e-06  9.9033816424326870e-01 -3.0755852490841917e-06  9.9033816424326870e-01 -3.0755852490841968e-06  9.6618357565648998e-03  2.4995986102270777e-06
1.079451962737778e+05  9.6618357565814023e-03  2.5019021144207077e-06  9.9033816424325183e-01 -3.0784195540626601e-06  9.9033816424325205e-01 -3.0784195540626623e-06  9.6618357565814734e-03  2.5019021144207073e-06
1.080446732251891e+05  9.6618357565850400e-03  2.5042077543752187e-06  9.9033816424324772e-01 -3.0812564839609702e-06  9.9033816424324772e-01 -3.0812564839609600e-06  9.6618357565849706e-03  2.5042077543752191e-06
1.081442418496366e+05  9.6618357566057803e-03  2.5065155019535832e-06  9.9033816424322696e-01 -3.0840960110946791e-06  9.9033816424322685e-01 -3.0840960110946795e-06  9.6618357566057092e-03  2.5065155019535828e-06
1.082439022316013e+05  9.6618357566239620e-03  2.5088253787742181e-06  9.9033816424320820e-01 -3.0869381575322284e-06  9.9033816424320842e-01 -3.0869381575322402e-06  9.6618357566240331e-03  2.5088253787742181e-06
1.083436544556424e+05  9.6618357566339522e-03  2.5111373925265221e-06  9.9033816424319798e-01 -3.0897829314143012e-06  9.9033816424319798e-01 -3.0897829314142979e-06  9.6618357566340234e-03  2.5111373925265209e-06
1.084434986063974e+05  9.6618357566510792e-03  2.5134515298918401e-06  9.9033816424318077e-01 -3.0926303198751835e-06  9.9033816424318077e-01 -3.0926303198751729e-06  9.6618357566510080e-03  2.5134515298918397e-06
1.085434347685809e+05  9.6618357566584014e-03  2.5157678095609778e-06  9.9033816424317300e-01 -3.0954803420571111e-06  9.9033816424317300e-01 -3.0954803420571081e-06  9.6618357566584726e-03  2.5157678095609778e-06
1.086434630269865e+05  9.6618357566815010e-03  2.5180862080879801e-06  9.9033816424314947e-01 -3.0983329749685466e-06  9.9033816424314980e-01 -3.0983329749685466e-06  9.6618357566815721e-03  2.5180862080879788e-06
1.087435834664851e+05  9.6618357566926449e-03  2.5204067551672370e-06  9.9033816424313825e-01 -3.1011882487554799e-06  9.9033816424313825e-01 -3.1011882487554846e-06  9.6618357566925737e-03  2.5204067551672374e-06
1.088437961720265e+05  9.6618357566991431e-03  2.5227294454223319e-06  9.9033816424313137e-01 -3.1040461584956479e-06  9.9033816424313137e-01 -3.1040461584956428e-06  9.6618357566990720e-03  2.5227294454223323e-06
