# Hz S RI R 50

1.000000000000000e+11  9.1836941687933182e-01 -1.6564167225372164e-01 -6.2778336104589175e-02 -3.4685800129409633e-01 -6.2778336104589202e-02 -3.4685800129409644e-01  9.1836941687933182e-01 -1.6564167225372164e-01
1.000460669150362e+11  9.1823834173707908e-01 -1.6598519863259917e-01 -6.2947516704229281e-02 -3.4700268298010595e-01 -6.2947516704229239e-02 -3.4700268298010584e-01  9.1823834173707886e-01 -1.6598519863259914e-01
1.000921550516794e+11  9.1810680331855299e-01 -1.6632911556427563e-01 -6.3117116391023950e-02 -3.4714776220097565e-01 -6.3117116391023936e-02 -3.4714776220097565e-01  9.1810680331855299e-01 -1.6632911556427563e-01
1.001382644197050e+11  9.1797479991888908e-01 -1.6667342394450640e-01 -6.3287136890340379e-02 -3.4729323979358812e-01 -6.3287136890340365e-02 -3.4729323979358817e-01  9.1797479991888897e-01 -1.6667342394450638e-01
1.001843950288940e+11  9.1784232982498204e-01 -1.6701812467088223e-01 -6.3457579935742220e-02 -3.4743911659657628e-01 -6.3457579935742220e-02 -3.4743911659657623e-01  9.1784232982498204e-01 -1.6701812467088223e-01
1.002305468890319e+11  9.1770939131544682e-01 -1.6736321864281944e-01 -6.3628447269031052e-02 -3.4758539345031830e-01 -6.3628447269031066e-02 -3.4758539345031830e-01  9.1770939131544704e-01 -1.6736321864281947e-01
1.002767200099076e+11  9.1757598266057416e-01 -1.6770870676154997e-01 -6.3799740640289024e-02 -3.4773207119693283e-01 -6.3799740640288996e-02 -3.4773207119693272e-01  9.1757598266057416e-01 -1.6770870676154997e-01
1.003229144013156e+11  9.1744210212227562e-01 -1.6805458993013594e-01 -6.3971461807933352e-02 -3.4787915068028280e-01 -6.3971461807933352e-02 -3.4787915068028280e-01  9.1744210212227562e-01 -1.6805458993013594e-01
1.003691300730551e+11  9.1730774795404346e-01 -1.6840086905345991e-01 -6.4143612538759512e-02 -3.4802663274597101e-01 -6.4143612538759526e-02 -3.4802663274597107e-01  9.1730774795404368e-01 -1.6840086905345991e-01
1.004153670349285e+11  9.1717291840090354e-01 -1.6874754503821338e-01 -6.4316194607983740e-02 -3.4817451824133377e-01 -6.4316194607983754e-02 -3.4817451824133383e-01  9.1717291840090331e-01 -1.6874754503821329e-01
1.004616252967437e+11  9.1703761169936215e-01 -1.6909461879291190e-01 -6.4489209799299008e-02 -3.4832280801544541e-01 -6.4489209799299035e-02 -3.4832280801544546e-01  9.1703761169936227e-01 -1.6909461879291193e-01
1.005079048683136e+11  9.1690182607736315e-01 -1.6944209122788623e-01 -6.4662659904919553e-02 -3.4847150291911361e-01 -6.4662659904919581e-02 -3.4847150291911372e-01  9.1690182607736292e-01 -1.6944209122788620e-01
1.005542057594539e+11  9.1676555975424068e-01 -1.6978996325526752e-01 -6.4836546725622848e-02 -3.4862060380487170e-01 -6.4836546725622834e-02 -3.4862060380487170e-01  9.1676555975424068e-01 -1.6978996325526749e-01
1.006005279799865e+11  9.1662881094066562e-01 -1.7013823578900575e-01 -6.5010872070808176e-02 -3.4877011152698451e-01 -6.5010872070808176e-02 -3.4877011152698451e-01  9.1662881094066551e-01 -1.7013823578900569e-01
1.006468715397374e+11  9.1649157783859858e-01 -1.7048690974485722e-01 -6.5185637758540763e-02 -3.4892002694144192e-01 -6.5185637758540749e-02 -3.4892002694144192e-01  9.1649157783859858e-01 -1.7048690974485725e-01
1.006932364485362e+11  9.1635385864124763e-01 -1.7083598604037181e-01 -6.5360845615595187e-02 -3.4907035090595140e-01 -6.5360845615595187e-02 -3.4907035090595140e-01  9.1635385864124741e-01 -1.7083598604037176e-01
1.007396227162182e+11  9.1621565153300799e-01 -1.7118546559491102e-01 -6.5536497477515554e-02 -3.4922108427994469e-01 -6.5536497477515554e-02 -3.4922108427994469e-01  9.1621565153300799e-01 -1.7118546559491099e-01
1.007860303526231e+11  9.1607695468941774e-01 -1.7153534932963271e-01 -6.5712595188658796e-02 -3.4937222792456840e-01 -6.5712595188658782e-02 -3.4937222792456835e-01  9.1607695468941785e-01 -1.7153534932963277e-01
1.008324593675940e+11  9.1593776627711287e-01 -1.7188563816748123e-01 -6.5889140602240895e-02 -3.4952378270267909e-01 -6.5889140602240881e-02 -3.4952378270267909e-01  9.1593776627711287e-01 -1.7188563816748123e-01
1.008789097709802e+11  9.1579808445376509e-01 -1.7223633303320593e-01 -6.6066135580398311e-02 -3.4967574947884877e-01 -6.6066135580398311e-02 -3.4967574947884872e-01  9.1579808445376487e-01 -1.7223633303320593e-01
1.009253815726338e+11  9.1565790736804409e-01 -1.7258743485333200e-01 -6.6243581994225267e-02 -3.4982812911935074e-01 -6.6243581994225267e-02 -3.4982812911935074e-01  9.1565790736804387e-01 -1.7258743485333194e-01
1.009718747824129e+11  9.1551723315955624e-01 -1.7293894455617995e-01 -6.6421481723836176e-02 -3.4998092249216561e-01 -6.6421481723836148e-02 -3.4998092249216561e-01  9.1551723315955646e-01 -1.7293894455618000e-01
1.010183894101797e+11  9.1537605995879812e-01 -1.7329086307185321e-01 -6.6599836658412279e-02 -3.5013413046697445e-01 -6.6599836658412293e-02 -3.5013413046697445e-01  9.1537605995879812e-01 -1.7329086307185321e-01
1.010649254658003e+11  9.1523438588710704e-01 -1.7364319133222325e-01 -6.6778648696247597e-02 -3.5028775391514938e-01 -6.6778648696247611e-02 -3.5028775391514938e-01  9.1523438588710726e-01 -1.7364319133222331e-01
1.011114829591460e+11  9.1509220905660382e-01 -1.7399593027094717e-01 -6.6957919744811342e-02 -3.5044179370976025e-01 -6.6957919744811342e-02 -3.5044179370976025e-01  9.1509220905660404e-01 -1.7399593027094723e-01
1.011580619000931e+11  9.1494952757014258e-01 -1.7434908082345418e-01 -6.7137651720795097e-02 -3.5059625072556538e-01 -6.7137651720795111e-02 -3.5059625072556538e-01  9.1494952757014258e-01 -1.7434908082345418e-01
1.012046622985209e+11  9.1480633952126233e-01 -1.7470264392693016e-01 -6.7317846550159752e-02 -3.5075112583900375e-01 -6.7317846550159752e-02 -3.5075112583900370e-01  9.1480633952126233e-01 -1.7470264392693016e-01
1.012512841643146e+11  9.1466264299412658e-01 -1.7505662052033646e-01 -6.7498506168199718e-02 -3.5090641992819938e-01 -6.7498506168199732e-02 -3.5090641992819938e-01  9.1466264299412636e-01 -1.7505662052033646e-01
1.012979275073641e+11  9.1451843606347438e-01 -1.7541101154439262e-01 -6.7679632519589375e-02 -3.5106213387295276e-01 -6.7679632519589389e-02 -3.5106213387295271e-01  9.1451843606347438e-01 -1.7541101154439262e-01
1.013445923375623e+11  9.1437371679456914e-01 -1.7576581794156534e-01 -6.7861227558433476e-02 -3.5121826855473287e-01 -6.7861227558433435e-02 -3.5121826855473270e-01  9.1437371679456914e-01 -1.7576581794156534e-01
1.013912786648082e+11  9.1422848324313932e-01 -1.7612104065608133e-01 -6.8043293248329209e-02 -3.5137482485668009e-01 -6.8043293248329237e-02 -3.5137482485668020e-01  9.1422848324313932e-01 -1.7612104065608133e-01
1.014379864990053e+11  9.1408273345532487e-01 -1.7647668063391522e-01 -6.8225831562417197e-02 -3.5153180366359926e-01 -6.8225831562417225e-02 -3.5153180366359932e-01  9.1408273345532487e-01 -1.7647668063391522e-01
1.014847158500602e+11  9.1393646546762963e-01 -1.7683273882277439e-01 -6.8408844483430042e-02 -3.5168920586194896e-01 -6.8408844483430029e-02 -3.5168920586194896e-01  9.1393646546762963e-01 -1.7683273882277439e-01
1.015314667278856e+11  9.1378967730685601e-01 -1.7718921617211322e-01 -6.8592334003757388e-02 -3.5184703233984621e-01 -6.8592334003757360e-02 -3.5184703233984610e-01  9.1378967730685579e-01 -1.7718921617211317e-01
1.015782391423986e+11  9.1364236699005530e-01 -1.7754611363311920e-01 -6.8776302125496402e-02 -3.5200528398705688e-01 -6.8776302125496375e-02 -3.5200528398705688e-01  9.1364236699005552e-01 -1.7754611363311923e-01
1.016250331035196e+11  9.1349453252447499e-01 -1.7790343215869892e-01 -6.8960750860502629e-02 -3.5216396169498715e-01 -6.8960750860502629e-02 -3.5216396169498715e-01  9.1349453252447499e-01 -1.7790343215869889e-01
1.016718486211749e+11  9.1334617190749567e-01 -1.7826117270349107e-01 -6.9145682230455446e-02 -3.5232306635668575e-01 -6.9145682230455446e-02 -3.5232306635668575e-01  9.1334617190749567e-01 -1.7826117270349107e-01
1.017186857052954e+11  9.1319728312657578e-01 -1.7861933622385320e-01 -6.9331098266910321e-02 -3.5248259886683531e-01 -6.9331098266910349e-02 -3.5248259886683542e-01  9.1319728312657555e-01 -1.7861933622385315e-01
1.017655443658152e+11  9.1304786415920425e-01 -1.7897792367784504e-01 -6.9517001011349430e-02 -3.5264256012174244e-01 -6.9517001011349416e-02 -3.5264256012174244e-01  9.1304786415920425e-01 -1.7897792367784507e-01
1.018124246126743e+11  9.1289791297282896e-01 -1.7933693602524359e-01 -6.9703392515249624e-02 -3.5280295101934001e-01 -6.9703392515249624e-02 -3.5280295101934001e-01  9.1289791297282896e-01 -1.7933693602524359e-01
1.018593264558174e+11  9.1274742752480864e-01 -1.7969637422752732e-01 -6.9890274840134409e-02 -3.5296377245917826e-01 -6.9890274840134409e-02 -3.5296377245917826e-01  9.1274742752480864e-01 -1.7969637422752732e-01
1.019062499051922e+11  9.1259640576235557e-01 -1.8005623924786121e-01 -7.0077650057627200e-02 -3.5312502534241391e-01 -7.0077650057627200e-02 -3.5312502534241391e-01  9.1259640576235557e-01 -1.8005623924786121e-01
1.019531949707526e+11  9.1244484562247086e-01 -1.8041653205111069e-01 -7.0265520249519597e-02 -3.5328671057181360e-01 -7.0265520249519570e-02 -3.5328671057181354e-01  9.1244484562247108e-01 -1.8041653205111075e-01
1.020001616624569e+11  9.1229274503188951e-01 -1.8077725360382374e-01 -7.0453887507823790e-02 -3.5344882905174163e-01 -7.0453887507823776e-02 -3.5344882905174163e-01  9.1229274503188962e-01 -1.8077725360382380e-01
1.020471499902668e+11  9.1214010190702544e-01 -1.8113840487421837e-01 -7.0642753934828328e-02 -3.5361138168815209e-01 -7.0642753934828301e-02 -3.5361138168815209e-01  9.1214010190702521e-01 -1.8113840487421834e-01
1.020941599641496e+11  9.1198691415390298e-01 -1.8149998683219248e-01 -7.0832121643165949e-02 -3.5377436938858836e-01 -7.0832121643165949e-02 -3.5377436938858836e-01  9.1198691415390321e-01 -1.8149998683219251e-01
1.021411915940777e+11  9.1183317966810340e-01 -1.8186200044931020e-01 -7.1021992755869234e-02 -3.5393779306217399e-01 -7.1021992755869248e-02 -3.5393779306217399e-01  9.1183317966810340e-01 -1.8186200044931020e-01
1.021882448900263e+11  9.1167889633470667e-01 -1.8222444669878460e-01 -7.1212369406425391e-02 -3.5410165361960133e-01 -7.1212369406425363e-02 -3.5410165361960122e-01  9.1167889633470689e-01 -1.8222444669878460e-01
1.022353198619768e+11  9.1152406202822411e-01 -1.8258732655549034e-01 -7.1403253738846664e-02 -3.5426595197313260e-01 -7.1403253738846692e-02 -3.5426595197313271e-01  9.1152406202822411e-01 -1.8258732655549034e-01
1.022824165199150e+11  9.1136867461254090e-01 -1.8295064099594624e-01 -7.1594647907726072e-02 -3.5443068903658920e-01 -7.1594647907726086e-02 -3.5443068903658931e-01  9.1136867461254112e-01 -1.8295064099594627e-01
1.023295348738302e+11  9.1121273194085917e-01 -1.8331439099830166e-01 -7.1786554078294720e-02 -3.5459586572534058e-01 -7.1786554078294734e-02 -3.5459586572534058e-01  9.1121273194085917e-01 -1.8331439099830166e-01
1.023766749337179e+11  9.1105623185562623e-01 -1.8367857754234709e-01 -7.1978974426493300e-02 -3.5476148295630539e-01 -7.1978974426493300e-02 -3.5476148295630539e-01  9.1105623185562623e-01 -1.8367857754234709e-01
1.024238367095765e+11  9.1089917218848315e-01 -1.8404320160948559e-01 -7.2171911139022771e-02 -3.5492754164793433e-01 -7.2171911139022785e-02 -3.5492754164793433e-01  9.1089917218848315e-01 -1.8404320160948559e-01
1.024710202114103e+11  9.1074155076019514e-01 -1.8440826418274470e-01 -7.2365366413417148e-02 -3.5509404272021128e-01 -7.2365366413417120e-02 -3.5509404272021128e-01  9.1074155076019492e-01 -1.8440826418274467e-01
1.025182254492283e+11  9.1058336538058848e-01 -1.8477376624676087e-01 -7.2559342458102083e-02 -3.5526098709464199e-01 -7.2559342458102083e-02 -3.5526098709464199e-01  9.1058336538058871e-01 -1.8477376624676090e-01
1.025654524330426e+11  9.1042461384849538e-01 -1.8513970878776034e-01 -7.2753841492452606e-02 -3.5542837569424063e-01 -7.2753841492452620e-02 -3.5542837569424063e-01  9.1042461384849516e-01 -1.8513970878776029e-01
1.026127011728714e+11  9.1026529395167932e-01 -1.8550609279357244e-01 -7.2948865746867611e-02 -3.5559620944353176e-01 -7.2948865746867611e-02 -3.5559620944353171e-01  9.1026529395167954e-01 -1.8550609279357250e-01
1.026599716787375e+11  9.1010540346677615e-01 -1.8587291925361024e-01 -7.3144417462828265e-02 -3.5576448926853654e-01 -7.3144417462828265e-02 -3.5576448926853654e-01  9.1010540346677604e-01 -1.8587291925361024e-01
1.027072639606669e+11  9.0994494015923333e-01 -1.8624018915885313e-01 -7.3340498892958073e-02 -3.5593321609676049e-01 -7.3340498892958059e-02 -3.5593321609676043e-01  9.0994494015923344e-01 -1.8624018915885315e-01
1.027545780286917e+11  9.0978390178323720e-01 -1.8660790350185638e-01 -7.3537112301096719e-02 -3.5610239085719242e-01 -7.3537112301096746e-02 -3.5610239085719247e-01  9.0978390178323709e-01 -1.8660790350185635e-01
1.028019138928484e+11  9.0962228608165063e-01 -1.8697606327673527e-01 -7.3734259962362367e-02 -3.5627201448029311e-01 -7.3734259962362381e-02 -3.5627201448029311e-01  9.0962228608165063e-01 -1.8697606327673527e-01
1.028492715631770e+11  9.0946009078595225e-01 -1.8734466947914391e-01 -7.3931944163210514e-02 -3.5644208789798004e-01 -7.3931944163210528e-02 -3.5644208789798004e-01  9.0946009078595225e-01 -1.8734466947914394e-01
1.028966510497234e+11  9.0929731361616195e-01 -1.8771372310628701e-01 -7.4130167201511374e-02 -3.5661261204362771e-01 -7.4130167201511374e-02 -3.5661261204362771e-01  9.0929731361616184e-01 -1.8771372310628701e-01
1.029440523625380e+11  9.0913395228077676e-01 -1.8808322515690104e-01 -7.4328931386611452e-02 -3.5678358785205433e-01 -7.4328931386611438e-02 -3.5678358785205433e-01  9.0913395228077687e-01 -1.8808322515690107e-01
1.029914755116747e+11  9.0897000447671106e-01 -1.8845317663123340e-01 -7.4528239039394678e-02 -3.5695501625950654e-01 -7.4528239039394650e-02 -3.5695501625950649e-01  9.0897000447671117e-01 -1.8845317663123340e-01
1.030389205071932e+11  9.0880546788921712e-01 -1.8882357853105394e-01 -7.4728092492361120e-02 -3.5712689820365945e-01 -7.4728092492361106e-02 -3.5712689820365945e-01  9.0880546788921701e-01 -1.8882357853105391e-01
1.030863873591579e+11  9.0864034019182283e-01 -1.8919443185963497e-01 -7.4928494089689546e-02 -3.5729923462360197e-01 -7.4928494089689560e-02 -3.5729923462360197e-01  9.0864034019182272e-01 -1.8919443185963494e-01
1.031338760776365e+11  9.0847461904626881e-01 -1.8956573762173085e-01 -7.5129446187300178e-02 -3.5747202645982207e-01 -7.5129446187300178e-02 -3.5747202645982207e-01  9.0847461904626869e-01 -1.8956573762173079e-01
1.031813866727027e+11  9.0830830210242830e-01 -1.8993749682358824e-01 -7.5330951152934811e-02 -3.5764527465420543e-01 -7.5330951152934825e-02 -3.5764527465420543e-01  9.0830830210242830e-01 -1.8993749682358824e-01
1.032289191544349e+11  9.0814138699824432e-01 -1.9030971047292480e-01 -7.5533011366219885e-02 -3.5781898015002023e-01 -7.5533011366219871e-02 -3.5781898015002023e-01  9.0814138699824409e-01 -1.9030971047292475e-01
1.032764735329145e+11  9.0797387135966301e-01 -1.9068237957890963e-01 -7.5735629218731795e-02 -3.5799314389190201e-01 -7.5735629218731781e-02 -3.5799314389190190e-01  9.0797387135966301e-01 -1.9068237957890963e-01
1.033240498182293e+11  9.0780575280055575e-01 -1.9105550515217129e-01 -7.5938807114077023e-02 -3.5816776682585139e-01 -7.5938807114077037e-02 -3.5816776682585144e-01  9.0780575280055553e-01 -1.9105550515217123e-01
1.033716480204715e+11  9.0763702892265052e-01 -1.9142908820477844e-01 -7.6142547467958455e-02 -3.5834284989921927e-01 -7.6142547467958482e-02 -3.5834284989921927e-01  9.0763702892265041e-01 -1.9142908820477847e-01
1.034192681497366e+11  9.0746769731546817e-01 -1.9180312975021671e-01 -7.6346852708239973e-02 -3.5851839406068958e-01 -7.6346852708239987e-02 -3.5851839406068958e-01  9.0746769731546828e-01 -1.9180312975021674e-01
1.034669102161262e+11  9.0729775555624059e-01 -1.9217763080339734e-01 -7.6551725275028973e-02 -3.5869440026027705e-01 -7.6551725275029014e-02 -3.5869440026027716e-01  9.0729775555624048e-01 -1.9217763080339734e-01
1.035145742297465e+11  9.0712720120984158e-01 -1.9255259238063746e-01 -7.6757167620744263e-02 -3.5887086944931212e-01 -7.6757167620744277e-02 -3.5887086944931212e-01  9.0712720120984169e-01 -1.9255259238063746e-01
1.035622602007070e+11  9.0695603182872175e-01 -1.9292801549963642e-01 -7.6963182210181821e-02 -3.5904780258042268e-01 -7.6963182210181780e-02 -3.5904780258042257e-01  9.0695603182872175e-01 -1.9292801549963645e-01
1.036099681391232e+11  9.0678424495282339e-01 -1.9330390117948351e-01 -7.7169771520598840e-02 -3.5922520060753121e-01 -7.7169771520598826e-02 -3.5922520060753116e-01  9.0678424495282350e-01 -1.9330390117948357e-01
1.036576980551153e+11  9.0661183810951385e-01 -1.9368025044063758e-01 -7.7376938041782986e-02 -3.5940306448583925e-01 -7.7376938041782972e-02 -3.5940306448583925e-01  9.0661183810951385e-01 -1.9368025044063758e-01
1.037054499588069e+11  9.0643880881351513e-01 -1.9405706430490130e-01 -7.7584684276118740e-02 -3.5958139517180765e-01 -7.7584684276118754e-02 -3.5958139517180765e-01  9.0643880881351513e-01 -1.9405706430490130e-01
1.037532238603273e+11  9.0626515456681966e-01 -1.9443434379543145e-01 -7.7793012738674935e-02 -3.5976019362315448e-01 -7.7793012738674935e-02 -3.5976019362315448e-01  9.0626515456681966e-01 -1.9443434379543145e-01
1.038010197698108e+11  9.0609087285862067e-01 -1.9481208993671376e-01 -7.8001925957272761e-02 -3.5993946079883676e-01 -7.8001925957272761e-02 -3.5993946079883671e-01  9.0609087285862089e-01 -1.9481208993671381e-01
1.038488376973949e+11  9.0591596116524198e-01 -1.9519030375454124e-01 -7.8211426472556536e-02 -3.6011919765903233e-01 -7.8211426472556536e-02 -3.6011919765903233e-01  9.0591596116524209e-01 -1.9519030375454127e-01
1.038966776532230e+11  9.0574041695005114e-01 -1.9556898627601904e-01 -7.8421516838080060e-02 -3.6029940516513570e-01 -7.8421516838080033e-02 -3.6029940516513570e-01  9.0574041695005125e-01 -1.9556898627601907e-01
1.039445396474434e+11  9.0556423766338812e-01 -1.9594813852954157e-01 -7.8632199620377805e-02 -3.6048008427973877e-01 -7.8632199620377818e-02 -3.6048008427973888e-01  9.0556423766338789e-01 -1.9594813852954154e-01
1.039924236902076e+11  9.0538742074249479e-01 -1.9632776154476875e-01 -7.8843477399036258e-02 -3.6066123596661320e-01 -7.8843477399036285e-02 -3.6066123596661331e-01  9.0538742074249479e-01 -1.9632776154476875e-01
1.040403297916734e+11  9.0520996361142325e-01 -1.9670785635263444e-01 -7.9055352766784381e-02 -3.6084286119070574e-01 -7.9055352766784354e-02 -3.6084286119070569e-01  9.0520996361142325e-01 -1.9670785635263444e-01
1.040882579620020e+11  9.0503186368097355e-01 -1.9708842398530579e-01 -7.9267828329556478e-02 -3.6102496091811159e-01 -7.9267828329556450e-02 -3.6102496091811148e-01  9.0503186368097366e-01 -1.9708842398530582e-01
1.041362082113600e+11  9.0485311834860194e-01 -1.9746946547619110e-01 -7.9480906706583698e-02 -3.6120753611607032e-01 -7.9480906706583726e-02 -3.6120753611607043e-01  9.0485311834860205e-01 -1.9746946547619110e-01
1.041841805499191e+11  9.0467372499834831e-01 -1.9785098185991595e-01 -7.9694590530467763e-02 -3.6139058775294641e-01 -7.9694590530467735e-02 -3.6139058775294641e-01  9.0467372499834819e-01 -1.9785098185991590e-01
1.042321749878542e+11  9.0449368100075989e-01 -1.9823297417229621e-01 -7.9908882447253970e-02 -3.6157411679820822e-01 -7.9908882447253970e-02 -3.6157411679820822e-01  9.0449368100075989e-01 -1.9823297417229618e-01
1.042801915353462e+11  9.0431298371280311e-01 -1.9861544345034471e-01 -8.0123785116523752e-02 -3.6175812422242276e-01 -8.0123785116523766e-02 -3.6175812422242287e-01  9.0431298371280300e-01 -1.9861544345034471e-01
1.043282302025808e+11  9.0413163047778611e-01 -1.9899839073224310e-01 -8.0339301211468109e-02 -3.6194261099723402e-01 -8.0339301211468109e-02 -3.6194261099723396e-01  9.0413163047778611e-01 -1.9899839073224307e-01
