# Hz S RI R 100

4.999999999999999e+10  6.4095011564152893e-01  3.2883800701817079e-01  3.1937191872689785e-01 -6.0706974124037527e-01  3.1937191872689785e-01 -6.0706974124037538e-01  6.4095011564152893e-01  3.2883800701817079e-01
5.000346620265101e+10  6.4098175542968205e-01  3.2881593238973261e-01  3.1933419199896912e-01 -6.0706854903068974e-01  3.1933419199896912e-01 -6.0706854903068974e-01  6.4098175542968205e-01  3.2881593238973267e-01
5.000693264559344e+10  6.4101339358190668e-01  3.2879385440309633e-01  3.1929646588799193e-01 -6.0706735525334443e-01  3.1929646588799193e-01 -6.0706735525334443e-01  6.4101339358190657e-01  3.2879385440309633e-01
5.001039932884355e+10  6.4104503009781755e-01  3.2877177305832522e-01  3.1925874039415669e-01 -6.0706615990859947e-01  3.1925874039415669e-01 -6.0706615990859947e-01  6.4104503009781766e-01  3.2877177305832533e-01
5.001386625241840e+10  6.4107666497703664e-01  3.2874968835547785e-01  3.1922101551764487e-01 -6.0706496299671464e-01  3.1922101551764487e-01 -6.0706496299671464e-01  6.4107666497703664e-01  3.2874968835547780e-01
5.001733341633423e+10  6.4110829821917881e-01  3.2872760029461728e-01  3.1918329125864681e-01 -6.0706376451795019e-01  3.1918329125864681e-01 -6.0706376451795019e-01  6.4110829821917881e-01  3.2872760029461728e-01
5.002080082060812e+10  6.4113992982386603e-01  3.2870550887580258e-01  3.1914556761734414e-01 -6.0706256447256601e-01  3.1914556761734425e-01 -6.0706256447256624e-01  6.4113992982386603e-01  3.2870550887580252e-01
5.002426846525632e+10  6.4117155979071316e-01  3.2868341409909702e-01  3.1910784459392683e-01 -6.0706136286082268e-01  3.1910784459392694e-01 -6.0706136286082291e-01  6.4117155979071316e-01  3.2868341409909696e-01
5.002773635029591e+10  6.4120318811934252e-01  3.2866131596455916e-01  3.1907012218857644e-01 -6.0706015968298044e-01  3.1907012218857650e-01 -6.0706015968298044e-01  6.4120318811934252e-01  3.2866131596455911e-01
5.003120447574315e+10  6.4123481480936850e-01  3.2863921447225281e-01  3.1903240040148317e-01 -6.0705895493929940e-01  3.1903240040148317e-01 -6.0705895493929940e-01  6.4123481480936839e-01  3.2863921447225281e-01
5.003467284161490e+10  6.4126643986041165e-01  3.2861710962223728e-01  3.1899467923282981e-01 -6.0705774863003970e-01  3.1899467923282993e-01 -6.0705774863003992e-01  6.4126643986041165e-01  3.2861710962223728e-01
5.003814144792802e+10  6.4129806327209249e-01  3.2859500141457287e-01  3.1895695868280055e-01 -6.0705654075546223e-01  3.1895695868280044e-01 -6.0705654075546200e-01  6.4129806327209249e-01  3.2859500141457287e-01
5.004161029469880e+10  6.4132968504402565e-01  3.2857288984932326e-01  3.1891923875158479e-01 -6.0705533131582701e-01  3.1891923875158479e-01 -6.0705533131582701e-01  6.4132968504402577e-01  3.2857288984932326e-01
5.004507938194429e+10  6.4136130517583367e-01  3.2855077492654683e-01  3.1888151943936355e-01 -6.0705412031139527e-01  3.1888151943936344e-01 -6.0705412031139516e-01  6.4136130517583367e-01  3.2855077492654683e-01
5.004854870968077e+10  6.4139292366713074e-01  3.2852865664630765e-01  3.1884380074632684e-01 -6.0705290774242671e-01  3.1884380074632684e-01 -6.0705290774242660e-01  6.4139292366713085e-01  3.2852865664630765e-01
5.005201827792532e+10  6.4142454051753972e-01  3.2850653500866395e-01  3.1880608267265553e-01 -6.0705169360918221e-01  3.1880608267265548e-01 -6.0705169360918221e-01  6.4142454051753961e-01  3.2850653500866395e-01
5.005548808669419e+10  6.4145615572667514e-01  3.2848441001368006e-01  3.1876836521853941e-01 -6.0705047791192290e-01  3.1876836521853941e-01 -6.0705047791192290e-01  6.4145615572667514e-01  3.2848441001368012e-01
5.005895813600447e+10  6.4148776929415963e-01  3.2846228166141428e-01  3.1873064838415893e-01 -6.0704926065090914e-01  3.1873064838415899e-01 -6.0704926065090914e-01  6.4148776929415963e-01  3.2846228166141439e-01
5.006242842587244e+10  6.4151938121960794e-01  3.2844014995193072e-01  3.1869293216970396e-01 -6.0704804182640193e-01  3.1869293216970396e-01 -6.0704804182640193e-01  6.4151938121960805e-01  3.2844014995193072e-01
5.006589895631516e+10  6.4155099150264217e-01  3.2841801488528821e-01  3.1865521657535523e-01 -6.0704682143866195e-01  3.1865521657535523e-01 -6.0704682143866195e-01  6.4155099150264217e-01  3.2841801488528821e-01
5.006936972734892e+10  6.4158260014287782e-01  3.2839587646155033e-01  3.1861750160130176e-01 -6.0704559948795034e-01  3.1861750160130176e-01 -6.0704559948795034e-01  6.4158260014287793e-01  3.2839587646155038e-01
5.007284073899059e+10  6.4161420713993489e-01  3.2837373468077746e-01  3.1857978724772684e-01 -6.0704437597452776e-01  3.1857978724772684e-01 -6.0704437597452776e-01  6.4161420713993489e-01  3.2837373468077752e-01
5.007631199125706e+10  6.4164581249343400e-01  3.2835158954302945e-01  3.1854207351481262e-01 -6.0704315089865535e-01  3.1854207351481262e-01 -6.0704315089865535e-01  6.4164581249343400e-01  3.2835158954302945e-01
5.007978348416460e+10  6.4167741620299035e-01  3.2832944104837064e-01  3.1850436040274888e-01 -6.0704192426059445e-01  3.1850436040274888e-01 -6.0704192426059445e-01  6.4167741620299035e-01  3.2832944104837070e-01
5.008325521773032e+10  6.4170901826822635e-01  3.2830728919685959e-01  3.1846664791171553e-01 -6.0704069606060573e-01  3.1846664791171553e-01 -6.0704069606060573e-01  6.4170901826822624e-01  3.2830728919685948e-01
5.008672719197046e+10  6.4174061868875654e-01  3.2828513398856052e-01  3.1842893604190209e-01 -6.0703946629895089e-01  3.1842893604190209e-01 -6.0703946629895089e-01  6.4174061868875665e-01  3.2828513398856057e-01
5.009019940690213e+10  6.4177221746420399e-01  3.2826297542353233e-01  3.1839122479348858e-01 -6.0703823497589071e-01  3.1839122479348864e-01 -6.0703823497589082e-01  6.4177221746420399e-01  3.2826297542353239e-01
5.009367186254161e+10  6.4180381459418345e-01  3.2824081350183915e-01  3.1835351416666408e-01 -6.0703700209168676e-01  3.1835351416666408e-01 -6.0703700209168676e-01  6.4180381459418323e-01  3.2824081350183915e-01
5.009714455890599e+10  6.4183541007831724e-01  3.2821864822353997e-01  3.1831580416160887e-01 -6.0703576764660050e-01  3.1831580416160887e-01 -6.0703576764660039e-01  6.4183541007831724e-01  3.2821864822353997e-01
5.010061749601157e+10  6.4186700391622065e-01  3.2819647958869874e-01  3.1827809477851154e-01 -6.0703453164089294e-01  3.1827809477851149e-01 -6.0703453164089294e-01  6.4186700391622065e-01  3.2819647958869874e-01
5.010409067387521e+10  6.4189859610751432e-01  3.2817430759737598e-01  3.1824038601755456e-01 -6.0703329407482587e-01  3.1824038601755456e-01 -6.0703329407482587e-01  6.4189859610751432e-01  3.2817430759737592e-01
5.010756409251382e+10  6.4193018665181900e-01  3.2815213224963180e-01  3.1820267787891987e-01 -6.0703205494866075e-01  3.1820267787891987e-01 -6.0703205494866075e-01  6.4193018665181900e-01  3.2815213224963186e-01
5.011103775194369e+10  6.4196177554874945e-01  3.2812995354553082e-01  3.1816497036279651e-01 -6.0703081426265892e-01  3.1816497036279662e-01 -6.0703081426265915e-01  6.4196177554874945e-01  3.2812995354553076e-01
5.011451165218192e+10  6.4199336279792873e-01  3.2810777148513159e-01  3.1812726346936371e-01 -6.0702957201708241e-01  3.1812726346936376e-01 -6.0702957201708241e-01  6.4199336279792885e-01  3.2810777148513165e-01
5.011798579324477e+10  6.4202494839897128e-01  3.2808558606849902e-01  3.1808955719881127e-01 -6.0702832821219266e-01  3.1808955719881127e-01 -6.0702832821219266e-01  6.4202494839897140e-01  3.2808558606849908e-01
5.012146017514938e+10  6.4205653235150084e-01  3.2806339729569178e-01  3.1805185155131743e-01 -6.0702708284825146e-01  3.1805185155131743e-01 -6.0702708284825146e-01  6.4205653235150073e-01  3.2806339729569173e-01
5.012493479791202e+10  6.4208811465513094e-01  3.2804120516677421e-01  3.1801414652707161e-01 -6.0702583592552051e-01  3.1801414652707161e-01 -6.0702583592552051e-01  6.4208811465513094e-01  3.2804120516677421e-01
5.012840966154979e+10  6.4211969530948576e-01  3.2801900968180564e-01  3.1797644212625287e-01 -6.0702458744426169e-01  3.1797644212625287e-01 -6.0702458744426169e-01  6.4211969530948576e-01  3.2801900968180564e-01
5.013188476607899e+10  6.4215127431417973e-01  3.2799681084085047e-01  3.1793873834904995e-01 -6.0702333740473713e-01  3.1793873834905007e-01 -6.0702333740473735e-01  6.4215127431417984e-01  3.2799681084085042e-01
5.013536011151653e+10  6.4218285166883371e-01  3.2797460864396916e-01  3.1790103519564450e-01 -6.0702208580720873e-01  3.1790103519564439e-01 -6.0702208580720851e-01  6.4218285166883371e-01  3.2797460864396916e-01
5.013883569787929e+10  6.4221442737306866e-01  3.2795240309122231e-01  3.1786333266621791e-01 -6.0702083265193818e-01  3.1786333266621791e-01 -6.0702083265193818e-01  6.4221442737306877e-01  3.2795240309122237e-01
5.014231152518359e+10  6.4224600142649968e-01  3.2793019418267433e-01  3.1782563076095849e-01 -6.0701957793918770e-01  3.1782563076095849e-01 -6.0701957793918770e-01  6.4224600142649968e-01  3.2793019418267433e-01
5.014578759344653e+10  6.4227757382874984e-01  3.2790798191838416e-01  3.1778792948004503e-01 -6.0701832166921954e-01  3.1778792948004514e-01 -6.0701832166921976e-01  6.4227757382874973e-01  3.2790798191838416e-01
5.014926390268440e+10  6.4230914457943367e-01  3.2788576629841698e-01  3.1775022882366655e-01 -6.0701706384229592e-01  3.1775022882366649e-01 -6.0701706384229592e-01  6.4230914457943367e-01  3.2788576629841704e-01
5.015274045291432e+10  6.4234071367817469e-01  3.2786354732283174e-01  3.1771252879200140e-01 -6.0701580445867898e-01  3.1771252879200146e-01 -6.0701580445867898e-01  6.4234071367817469e-01  3.2786354732283174e-01
5.015621724415260e+10  6.4237228112458766e-01  3.2784132499169333e-01  3.1767482938523822e-01 -6.0701454351863104e-01  3.1767482938523822e-01 -6.0701454351863104e-01  6.4237228112458766e-01  3.2784132499169333e-01
5.015969427641633e+10  6.4240384691829533e-01  3.2781909930506065e-01  3.1763713060355542e-01 -6.0701328102241414e-01  3.1763713060355542e-01 -6.0701328102241414e-01  6.4240384691829533e-01  3.2781909930506065e-01
5.016317154972183e+10  6.4243541105891366e-01  3.2779687026299864e-01  3.1759943244714089e-01 -6.0701201697029128e-01  3.1759943244714084e-01 -6.0701201697029128e-01  6.4243541105891377e-01  3.2779687026299864e-01
5.016664906408601e+10  6.4246697354606308e-01  3.2777463786556810e-01  3.1756173491617601e-01 -6.0701075136252447e-01  3.1756173491617595e-01 -6.0701075136252447e-01  6.4246697354606308e-01  3.2777463786556810e-01
5.017012681952579e+10  6.4249853437936455e-01  3.2775240211282936e-01  3.1752403801084161e-01 -6.0700948419937639e-01  3.1752403801084156e-01 -6.0700948419937639e-01  6.4249853437936455e-01  3.2775240211282924e-01
5.017360481605746e+10  6.4253009355843349e-01  3.2773016300484764e-01  3.1748634173132562e-01 -6.0700821548110939e-01  3.1748634173132567e-01 -6.0700821548110961e-01  6.4253009355843338e-01  3.2773016300484759e-01
5.017708305369815e+10  6.4256165108289287e-01  3.2770792054168185e-01  3.1744864607780643e-01 -6.0700694520798648e-01  3.1744864607780654e-01 -6.0700694520798670e-01  6.4256165108289287e-01  3.2770792054168185e-01
5.018056153246417e+10  6.4259320695235811e-01  3.2768567472339721e-01  3.1741095105047168e-01 -6.0700567338027012e-01  3.1741095105047168e-01 -6.0700567338027012e-01  6.4259320695235811e-01  3.2768567472339727e-01
5.018404025237263e+10  6.4262476116645173e-01  3.2766342555005318e-01  3.1737325664950011e-01 -6.0700439999822264e-01  3.1737325664950022e-01 -6.0700439999822287e-01  6.4262476116645173e-01  3.2766342555005323e-01
5.018751921343987e+10  6.4265631372478949e-01  3.2764117302171469e-01  3.1733556287507914e-01 -6.0700312506210774e-01  3.1733556287507919e-01 -6.0700312506210774e-01  6.4265631372478960e-01  3.2764117302171475e-01
5.019099841568298e+10  6.4268786462699445e-01  3.2761891713844093e-01  3.1729786972738672e-01 -6.0700184857218742e-01  3.1729786972738666e-01 -6.0700184857218742e-01  6.4268786462699445e-01  3.2761891713844099e-01
5.019447785911829e+10  6.4271941387268172e-01  3.2759665790029702e-01  3.1726017720661082e-01 -6.0700057052872514e-01  3.1726017720661082e-01 -6.0700057052872514e-01  6.4271941387268172e-01  3.2759665790029707e-01
5.019795754376292e+10  6.4275096146147426e-01  3.2757439530734261e-01  3.1722248531292946e-01 -6.0699929093198346e-01  3.1722248531292946e-01 -6.0699929093198346e-01  6.4275096146147437e-01  3.2757439530734261e-01
5.020143746963321e+10  6.4278250739298803e-01  3.2755212935964234e-01  3.1718479404652955e-01 -6.0699800978222562e-01  3.1718479404652961e-01 -6.0699800978222562e-01  6.4278250739298803e-01  3.2755212935964240e-01
5.020491763674605e+10  6.4281405166684336e-01  3.2752986005725787e-01  3.1714710340759245e-01 -6.0699672707971464e-01  3.1714710340759233e-01 -6.0699672707971442e-01  6.4281405166684336e-01  3.2752986005725782e-01
5.020839804511838e+10  6.4284559428266197e-01  3.2750758740024932e-01  3.1710941339629750e-01 -6.0699544282471340e-01  3.1710941339629750e-01 -6.0699544282471340e-01  6.4284559428266197e-01  3.2750758740024938e-01
5.021187869476653e+10  6.4287713524005918e-01  3.2748531138868220e-01  3.1707172401283235e-01 -6.0699415701748549e-01  3.1707172401283229e-01 -6.0699415701748538e-01  6.4287713524005918e-01  3.2748531138868220e-01
5.021535958570761e+10  6.4290867453865830e-01  3.2746303202261601e-01  3.1703403525737428e-01 -6.0699286965829358e-01  3.1703403525737439e-01 -6.0699286965829380e-01  6.4290867453865819e-01  3.2746303202261590e-01
5.021884071795797e+10  6.4294021217807451e-01  3.2744074930211597e-01  3.1699634713011088e-01 -6.0699158074740156e-01  3.1699634713011093e-01 -6.0699158074740156e-01  6.4294021217807451e-01  3.2744074930211597e-01
5.022232209153472e+10  6.4297174815793079e-01  3.2741846322724205e-01  3.1695865963122027e-01 -6.0699029028507234e-01  3.1695865963122027e-01 -6.0699029028507234e-01  6.4297174815793079e-01  3.2741846322724200e-01
5.022580370645420e+10  6.4300328247784333e-01  3.2739617379805880e-01  3.1692097276088838e-01 -6.0698899827156949e-01  3.1692097276088849e-01 -6.0698899827156971e-01  6.4300328247784322e-01  3.2739617379805885e-01
5.022928556273354e+10  6.4303481513743477e-01  3.2737388101462639e-01  3.1688328651929337e-01 -6.0698770470715657e-01  3.1688328651929332e-01 -6.0698770470715646e-01  6.4303481513743466e-01  3.2737388101462639e-01
5.023276766038906e+10  6.4306634613632052e-01  3.2735158487701022e-01  3.1684560090662234e-01 -6.0698640959209693e-01  3.1684560090662234e-01 -6.0698640959209693e-01  6.4306634613632041e-01  3.2735158487701022e-01
5.023624999943771e+10  6.4309787547412278e-01  3.2732928538527084e-01  3.1680791592305407e-01 -6.0698511292665402e-01  3.1680791592305413e-01 -6.0698511292665402e-01  6.4309787547412278e-01  3.2732928538527084e-01
5.023973257989641e+10  6.4312940315046141e-01  3.2730698253947016e-01  3.1677023156876971e-01 -6.0698381471109164e-01  3.1677023156876971e-01 -6.0698381471109164e-01  6.4312940315046141e-01  3.2730698253947016e-01
5.024321540178151e+10  6.4316092916495304e-01  3.2728467633967279e-01  3.1673254784395466e-01 -6.0698251494567323e-01  3.1673254784395477e-01 -6.0698251494567335e-01  6.4316092916495293e-01  3.2728467633967279e-01
5.024669846511014e+10  6.4319245351722065e-01  3.2726236678593923e-01  3.1669486474878711e-01 -6.0698121363066271e-01  3.1669486474878705e-01 -6.0698121363066271e-01  6.4319245351722065e-01  3.2726236678593923e-01
5.025018176989863e+10  6.4322397620688010e-01  3.2724005387833416e-01  3.1665718228345280e-01 -6.0697991076632385e-01  3.1665718228345280e-01 -6.0697991076632385e-01  6.4322397620688010e-01  3.2724005387833427e-01
5.025366531616412e+10  6.4325549723355424e-01  3.2721773761691808e-01  3.1661950044812953e-01 -6.0697860635292045e-01  3.1661950044812953e-01 -6.0697860635292045e-01  6.4325549723355424e-01  3.2721773761691803e-01
5.025714910392297e+10  6.4328701659685905e-01  3.2719541800175589e-01  3.1658181924300310e-01 -6.0697730039071629e-01  3.1658181924300305e-01 -6.0697730039071629e-01  6.4328701659685905e-01  3.2719541800175589e-01
5.026063313319231e+10  6.4331853429641728e-01  3.2717309503290803e-01  3.1654413866825137e-01 -6.0697599287997539e-01  3.1654413866825126e-01 -6.0697599287997517e-01  6.4331853429641739e-01  3.2717309503290803e-01
5.026411740398846e+10  6.4335005033184522e-01  3.2715076871043974e-01  3.1650645872406008e-01 -6.0697468382096187e-01  3.1650645872405997e-01 -6.0697468382096187e-01  6.4335005033184522e-01  3.2715076871043974e-01
5.026760191632840e+10  6.4338156470276464e-01  3.2712843903441213e-01  3.1646877941060803e-01 -6.0697337321393952e-01  3.1646877941060808e-01 -6.0697337321393974e-01  6.4338156470276453e-01  3.2712843903441208e-01
5.027108667022906e+10  6.4341307740879583e-01  3.2710610600488677e-01  3.1643110072807512e-01 -6.0697206105917234e-01  3.1643110072807518e-01 -6.0697206105917234e-01  6.4341307740879572e-01  3.2710610600488671e-01
5.027457166570677e+10  6.4344458844955521e-01  3.2708376962192959e-01  3.1639342267664761e-01 -6.0697074735692524e-01  3.1639342267664755e-01 -6.0697074735692524e-01  6.4344458844955521e-01  3.2708376962192953e-01
5.027805690277870e+10  6.4347609782466642e-01  3.2706142988560011e-01  3.1635574525650151e-01 -6.0696943210746157e-01  3.1635574525650151e-01 -6.0696943210746157e-01  6.4347609782466642e-01  3.2706142988560005e-01
5.028154238146119e+10  6.4350760553374464e-01  3.2703908679596416e-01  3.1631806846782329e-01 -6.0696811531104633e-01  3.1631806846782318e-01 -6.0696811531104611e-01  6.4350760553374464e-01  3.2703908679596416e-01
5.028502810177139e+10  6.4353911157641341e-01  3.2701674035308181e-01  3.1628039231078947e-01 -6.0696679696794287e-01  3.1628039231078947e-01 -6.0696679696794287e-01  6.4353911157641353e-01  3.2701674035308181e-01
5.028851406372565e+10  6.4357061595228893e-01  3.2699439055701857e-01  3.1624271678558558e-01 -6.0696547707841653e-01  3.1624271678558552e-01 -6.0696547707841653e-01  6.4357061595228904e-01  3.2699439055701857e-01
5.029200026734111e+10  6.4360211866099415e-01  3.2697203740783487e-01  3.1620504189238874e-01 -6.0696415564273132e-01  3.1620504189238874e-01 -6.0696415564273132e-01  6.4360211866099426e-01  3.2697203740783493e-01
5.029548671263415e+10  6.4363361970214539e-01  3.2694968090559595e-01  3.1616736763138398e-01 -6.0696283266115181e-01  3.1616736763138398e-01 -6.0696283266115170e-01  6.4363361970214517e-01  3.2694968090559595e-01
5.029897339962190e+10  6.4366511907536561e-01  3.2692732105036243e-01  3.1612969400274815e-01 -6.0696150813394234e-01  3.1612969400274804e-01 -6.0696150813394223e-01  6.4366511907536550e-01  3.2692732105036243e-01
5.030246032832072e+10  6.4369661678027090e-01  3.2690495784219981e-01  3.1609202100666656e-01 -6.0696018206136781e-01  3.1609202100666656e-01 -6.0696018206136781e-01  6.4369661678027090e-01  3.2690495784219981e-01
5.030594749874757e+10  6.4372811281648268e-01  3.2688259128116975e-01  3.1605434864331805e-01 -6.0695885444369269e-01  3.1605434864331805e-01 -6.0695885444369269e-01  6.4372811281648279e-01  3.2688259128116981e-01
5.030943491091942e+10  6.4375960718362291e-01  3.2686022136733434e-01  3.1601667691288121e-01 -6.0695752528118185e-01  3.1601667691288127e-01 -6.0695752528118185e-01  6.4375960718362291e-01  3.2686022136733422e-01
5.031292256485260e+10  6.4379109988130734e-01  3.2683784810075855e-01  3.1597900581554111e-01 -6.0695619457409988e-01  3.1597900581554111e-01 -6.0695619457409988e-01  6.4379109988130745e-01  3.2683784810075861e-01
5.031641046056430e+10  6.4382259090915928e-01  3.2681547148150331e-01  3.1594133535147406e-01 -6.0695486232271145e-01  3.1594133535147401e-01 -6.0695486232271134e-01  6.4382259090915928e-01  3.2681547148150325e-01
5.031989859807086e+10  6.4385408026679503e-01  3.2679309150963387e-01  3.1590366552086485e-01 -6.0695352852728157e-01  3.1590366552086496e-01 -6.0695352852728179e-01  6.4385408026679503e-01  3.2679309150963393e-01
