# Hz S RI R 50

 1000000000  6.6208774703920767e-03  6.3631423422386937e-02  0.0000000000000000e+00  0.0000000000000000e+00  9.9337354660337507e-01 -6.6969558098250781e-02  0.0000000000000000e+00  0.0000000000000000e+00
             0.0000000000000000e+00  0.0000000000000000e+00  6.6208774703920767e-03  6.3631423422386937e-02  0.0000000000000000e+00  0.0000000000000000e+00  9.9337354660337507e-01 -6.6969558098250781e-02
             9.9337354660337507e-01 -6.6969558098250781e-02  0.0000000000000000e+00  0.0000000000000000e+00  6.6208774703921469e-03  6.3631423422386937e-02  0.0000000000000000e+00  0.0000000000000000e+00
             0.0000000000000000e+00  0.0000000000000000e+00  9.9337354660337507e-01 -6.6969558098250781e-02  0.0000000000000000e+00  0.0000000000000000e+00  6.6208774703921469e-03  6.3631423422386937e-02
 1195000000  8.6586618624059589e-03  7.5863658274397394e-02  0.0000000000000000e+00  0.0000000000000000e+00  9.9133337475785610e-01 -7.9852787035906439e-02  0.0000000000000000e+00  0.0000000000000000e+00
             0.0000000000000000e+00  0.0000000000000000e+00  8.6586618624059589e-03  7.5863658274397394e-02  0.0000000000000000e+00  0.0000000000000000e+00  9.9133337475785610e-01 -7.9852787035906439e-02
             9.9133337475785621e-01 -7.9852787035906439e-02  0.0000000000000000e+00  0.0000000000000000e+00  8.6586618624059589e-03  7.5863658274397394e-02  0.0000000000000000e+00  0.0000000000000000e+00
             0.0000000000000000e+00  0.0000000000000000e+00  9.9133337475785621e-01 -7.9852787035906439e-02  0.0000000000000000e+00  0.0000000000000000e+00  8.6586618624059589e-03  7.5863658274397394e-02
 1390000000  1.0992812970294556e-02  8.8013271465053361e-02  0.0000000000000000e+00  0.0000000000000000e+00  9.8899641157366325e-01 -9.2653425135764869e-02  0.0000000000000000e+00  0.0000000000000000e+00
             0.0000000000000000e+00  0.0000000000000000e+00  1.0992812970294556e-02  8.8013271465053361e-02  0.0000000000000000e+00  0.0000000000000000e+00  9.8899641157366325e-01 -9.2653425135764869e-02
             9.8899641157366336e-01 -9.2653425135764883e-02  0.0000000000000000e+00  0.0000000000000000e+00  1.0992812970294556e-02  8.8013271465053361e-02  0.0000000000000000e+00  0.0000000000000000e+00
             0.0000000000000000e+00  0.0000000000000000e+00  9.8899641157366336e-01 -9.2653425135764883e-02  0.0000000000000000e+00  0.0000000000000000e+00  1.0992812970294556e-02  8.8013271465053361e-02
 1585000000  1.3622452379852304e-02  1.0006938200754506e-01  0.0000000000000000e+00  0.0000000000000000e+00  9.8636353532126220e-01 -1.0536059644256440e-01  0.0000000000000000e+00  0.0000000000000000e+00
             0.0000000000000000e+00  0.0000000000000000e+00  1.3622452379852304e-02  1.0006938200754506e-01  0.0000000000000000e+00  0.0000000000000000e+00  9.8636353532126220e-01 -1.0536059644256440e-01
             9.8636353532126220e-01 -1.0536059644256440e-01  0.0000000000000000e+00  0.0000000000000000e+00  1.3622452379852375e-02  1.0006938200754506e-01  0.0000000000000000e+00  0.0000000000000000e+00
             0.0000000000000000e+00  0.0000000000000000e+00  9.8636353532126220e-01 -1.0536059644256440e-01  0.0000000000000000e+00  0.0000000000000000e+00  1.3622452379852375e-02  1.0006938200754506e-01
 1780000000  1.6545125311838677e-02  1.1202128367910708e-01  0.0000000000000000e+00  0.0000000000000000e+00  9.8343720062609452e-01 -1.1796359976602798e-01  0.0000000000000000e+00  0.0000000000000000e+00
             0.0000000000000000e+00  0.0000000000000000e+00  1.6545125311838677e-02  1.1202128367910708e-01  0.0000000000000000e+00  0.0000000000000000e+00  9.8343720062609452e-01 -1.1796359976602798e-01
             9.8343720062609452e-01 -1.1796359976602798e-01  0.0000000000000000e+00  0.0000000000000000e+00  1.6545125311838674e-02  1.1202128367910706e-01  0.0000000000000000e+00  0.0000000000000000e+00
             0.0000000000000000e+00  0.0000000000000000e+00  9.8343720062609452e-01 -1.1796359976602798e-01  0.0000000000000000e+00  0.0000000000000000e+00  1.6545125311838674e-02  1.1202128367910706e-01
 1975000000  1.9757215311210174e-02  1.2385850756410088e-01  0.0000000000000000e+00  0.0000000000000000e+00  9.8022102377867859e-01 -1.3045197122410152e-01  0.0000000000000000e+00  0.0000000000000000e+00
             0.0000000000000000e+00  0.0000000000000000e+00  1.9757215311210174e-02  1.2385850756410088e-01  0.0000000000000000e+00  0.0000000000000000e+00  9.8022102377867859e-01 -1.3045197122410152e-01
             9.8022102377867859e-01 -1.3045197122410152e-01  0.0000000000000000e+00  0.0000000000000000e+00  1.9757215311210174e-02  1.2385850756410088e-01  0.0000000000000000e+00  0.0000000000000000e+00
             0.0000000000000000e+00  0.0000000000000000e+00  9.8022102377867859e-01 -1.3045197122410152e-01  0.0000000000000000e+00  0.0000000000000000e+00  1.9757215311210174e-02  1.2385850756410088e-01
 2170000000  2.3254188650343045e-02  1.3557087126413825e-01  0.0000000000000000e+00  0.0000000000000000e+00  9.7671953833089542e-01 -1.4281553345323206e-01  0.0000000000000000e+00  0.0000000000000000e+00
             0.0000000000000000e+00  0.0000000000000000e+00  2.3254188650343045e-02  1.3557087126413825e-01  0.0000000000000000e+00  0.0000000000000000e+00  9.7671953833089542e-01 -1.4281553345323206e-01
             9.7671953833089542e-01 -1.4281553345323206e-01  0.0000000000000000e+00  0.0000000000000000e+00  2.3254188650342972e-02  1.3557087126413825e-01  0.0000000000000000e+00  0.0000000000000000e+00
             0.0000000000000000e+00  0.0000000000000000e+00  9.7671953833089542e-01 -1.4281553345323206e-01  0.0000000000000000e+00  0.0000000000000000e+00  2.3254188650342972e-02  1.3557087126413825e-01
 2365000000  2.7030752460619544e-02  1.4714851941016929e-01  0.0000000000000000e+00  0.0000000000000000e+00  9.7293803696402947e-01 -1.5504443612060989e-01  0.0000000000000000e+00  0.0000000000000000e+00
             0.0000000000000000e+00  0.0000000000000000e+00  2.7030752460619544e-02  1.4714851941016929e-01  0.0000000000000000e+00  0.0000000000000000e+00  9.7293803696402947e-01 -1.5504443612060989e-01
             9.7293803696402947e-01 -1.5504443612060989e-01  0.0000000000000000e+00  0.0000000000000000e+00  2.7030752460619478e-02  1.4714851941016932e-01  0.0000000000000000e+00  0.0000000000000000e+00
             0.0000000000000000e+00  0.0000000000000000e+00  9.7293803696402947e-01 -1.5504443612060989e-01  0.0000000000000000e+00  0.0000000000000000e+00  2.7030752460619478e-02  1.4714851941016932e-01
 2560000000  3.1080965930189379e-02  1.5858195787986620e-01  0.0000000000000000e+00  0.0000000000000000e+00  9.6888246029071046e-01 -1.6712919014170483e-01  0.0000000000000000e+00  0.0000000000000000e+00
             0.0000000000000000e+00  0.0000000000000000e+00  3.1080965930189379e-02  1.5858195787986620e-01  0.0000000000000000e+00  0.0000000000000000e+00  9.6888246029071046e-01 -1.6712919014170483e-01
             9.6888246029071057e-01 -1.6712919014170485e-01  0.0000000000000000e+00  0.0000000000000000e+00  3.1080965930189376e-02  1.5858195787986618e-01  0.0000000000000000e+00  0.0000000000000000e+00
             0.0000000000000000e+00  0.0000000000000000e+00  9.6888246029071057e-01 -1.6712919014170485e-01  0.0000000000000000e+00  0.0000000000000000e+00  3.1080965930189376e-02  1.5858195787986618e-01
 2755000000  3.5398324512607257e-02  1.6986208304810468e-01  0.0000000000000000e+00  0.0000000000000000e+00  9.6455931264604022e-01 -1.7906069693090110e-01  0.0000000000000000e+00  0.0000000000000000e+00
             0.0000000000000000e+00  0.0000000000000000e+00  3.5398324512607257e-02  1.6986208304810468e-01  0.0000000000000000e+00  0.0000000000000000e+00  9.6455931264604022e-01 -1.7906069693090110e-01
             9.6455931264604022e-01 -1.7906069693090110e-01  0.0000000000000000e+00  0.0000000000000000e+00  3.5398324512607320e-02  1.6986208304810463e-01  0.0000000000000000e+00  0.0000000000000000e+00
             0.0000000000000000e+00  0.0000000000000000e+00  9.6455931264604022e-01 -1.7906069693090110e-01  0.0000000000000000e+00  0.0000000000000000e+00  3.5398324512607320e-02  1.6986208304810463e-01
 2950000000  3.9975827896149826e-02  1.8098020684490390e-01  0.0000000000000000e+00  0.0000000000000000e+00  9.5997559411807776e-01 -1.9083027345958906e-01  0.0000000000000000e+00  0.0000000000000000e+00
             0.0000000000000000e+00  0.0000000000000000e+00  3.9975827896149826e-02  1.8098020684490390e-01  0.0000000000000000e+00  0.0000000000000000e+00  9.5997559411807776e-01 -1.9083027345958906e-01
             9.5997559411807776e-01 -1.9083027345958906e-01  0.0000000000000000e+00  0.0000000000000000e+00  3.9975827896149826e-02  1.8098020684490390e-01  0.0000000000000000e+00  0.0000000000000000e+00
             0.0000000000000000e+00  0.0000000000000000e+00  9.5997559411807776e-01 -1.9083027345958906e-01  0.0000000000000000e+00  0.0000000000000000e+00  3.9975827896149826e-02  1.8098020684490390e-01
 3145000000  4.4806037806088793e-02  1.9192807809710910e-01  0.0000000000000000e+00  0.0000000000000000e+00  9.5513874274540167e-01 -2.0242967359799996e-01  0.0000000000000000e+00  0.0000000000000000e+00
             0.0000000000000000e+00  0.0000000000000000e+00  4.4806037806088793e-02  1.9192807809710910e-01  0.0000000000000000e+00  0.0000000000000000e+00  9.5513874274540167e-01 -2.0242967359799996e-01
             9.5513874274540167e-01 -2.0242967359799996e-01  0.0000000000000000e+00  0.0000000000000000e+00  4.4806037806088800e-02  1.9192807809710913e-01  0.0000000000000000e+00  0.0000000000000000e+00
             0.0000000000000000e+00  0.0000000000000000e+00  9.5513874274540167e-01 -2.0242967359799996e-01  0.0000000000000000e+00  0.0000000000000000e+00  4.4806037806088800e-02  1.9192807809710913e-01
 3340000000  4.9881129192228556e-02  2.0269790046510586e-01  0.0000000000000000e+00  0.0000000000000000e+00  9.5005658332943055e-01 -2.1385110605207214e-01  0.0000000000000000e+00  0.0000000000000000e+00
             0.0000000000000000e+00  0.0000000000000000e+00  4.9881129192228556e-02  2.0269790046510586e-01  0.0000000000000000e+00  0.0000000000000000e+00  9.5005658332943055e-01 -2.1385110605207214e-01
             9.5005658332943055e-01 -2.1385110605207214e-01  0.0000000000000000e+00  0.0000000000000000e+00  4.9881129192228549e-02  2.0269790046510583e-01  0.0000000000000000e+00  0.0000000000000000e+00
             0.0000000000000000e+00  0.0000000000000000e+00  9.5005658332943055e-01 -2.1385110605207214e-01  0.0000000000000000e+00  0.0000000000000000e+00  4.9881129192228549e-02  2.0269790046510583e-01
 3535000000  5.5192936930703880e-02  2.1328234719376082e-01  0.0000000000000000e+00  0.0000000000000000e+00  9.4473728073250285e-01 -2.2508724911454353e-01  0.0000000000000000e+00  0.0000000000000000e+00
             0.0000000000000000e+00  0.0000000000000000e+00  5.5192936930703880e-02  2.1328234719376082e-01  0.0000000000000000e+00  0.0000000000000000e+00  9.4473728073250285e-01 -2.2508724911454353e-01
             9.4473728073250296e-01 -2.2508724911454356e-01  0.0000000000000000e+00  0.0000000000000000e+00  5.5192936930703873e-02  2.1328234719376080e-01  0.0000000000000000e+00  0.0000000000000000e+00
             0.0000000000000000e+00  0.0000000000000000e+00  9.4473728073250296e-01 -2.2508724911454356e-01  0.0000000000000000e+00  0.0000000000000000e+00  5.5192936930703873e-02  2.1328234719376080e-01
 3730000000  6.0732999333225408e-02  2.2367457284619988e-01  0.0000000000000000e+00  0.0000000000000000e+00  9.3918929636852211e-01 -2.3613126239888113e-01  0.0000000000000000e+00  0.0000000000000000e+00
             0.0000000000000000e+00  0.0000000000000000e+00  6.0732999333225408e-02  2.2367457284619988e-01  0.0000000000000000e+00  0.0000000000000000e+00  9.3918929636852211e-01 -2.3613126239888113e-01
             9.3918929636852211e-01 -2.3613126239888113e-01  0.0000000000000000e+00  0.0000000000000000e+00  6.0732999333225415e-02  2.2367457284619990e-01  0.0000000000000000e+00  0.0000000000000000e+00
             0.0000000000000000e+00  0.0000000000000000e+00  9.3918929636852211e-01 -2.3613126239888113e-01  0.0000000000000000e+00  0.0000000000000000e+00  6.0732999333225415e-02  2.2367457284619990e-01
 3925000000  6.6492599250392428e-02  2.3386822216272862e-01  0.0000000000000000e+00  0.0000000000000000e+00  9.3342134709954805e-01 -2.4697679569835329e-01  0.0000000000000000e+00  0.0000000000000000e+00
             0.0000000000000000e+00  0.0000000000000000e+00  6.6492599250392428e-02  2.3386822216272862e-01  0.0000000000000000e+00  0.0000000000000000e+00  9.3342134709954805e-01 -2.4697679569835329e-01
             9.3342134709954805e-01 -2.4697679569835329e-01  0.0000000000000000e+00  0.0000000000000000e+00  6.6492599250392428e-02  2.3386822216272862e-01  0.0000000000000000e+00  0.0000000000000000e+00
             0.0000000000000000e+00  0.0000000000000000e+00  9.3342134709954805e-01 -2.4697679569835329e-01  0.0000000000000000e+00  0.0000000000000000e+00  6.6492599250392428e-02  2.3386822216272862e-01
 4120000000  7.2462803241075582e-02  2.4385743617529754e-01  0.0000000000000000e+00  0.0000000000000000e+00  9.2744236606632569e-01 -2.5761799510064631e-01  0.0000000000000000e+00  0.0000000000000000e+00
             0.0000000000000000e+00  0.0000000000000000e+00  7.2462803241075582e-02  2.4385743617529754e-01  0.0000000000000000e+00  0.0000000000000000e+00  9.2744236606632569e-01 -2.5761799510064631e-01
             9.2744236606632580e-01 -2.5761799510064631e-01  0.0000000000000000e+00  0.0000000000000000e+00  7.2462803241075582e-02  2.4385743617529759e-01  0.0000000000000000e+00  0.0000000000000000e+00
             0.0000000000000000e+00  0.0000000000000000e+00  9.2744236606632580e-01 -2.5761799510064631e-01  0.0000000000000000e+00  0.0000000000000000e+00  7.2462803241075582e-02  2.4385743617529759e-01
 4315000000  7.8634499081080320e-02  2.5363685570451633e-01  0.0000000000000000e+00  0.0000000000000000e+00  9.2126146517954233e-01 -2.6804950648503040e-01  0.0000000000000000e+00  0.0000000000000000e+00
             0.0000000000000000e+00  0.0000000000000000e+00  7.8634499081080320e-02  2.5363685570451633e-01  0.0000000000000000e+00  0.0000000000000000e+00  9.2126146517954233e-01 -2.6804950648503040e-01
             9.2126146517954255e-01 -2.6804950648503045e-01  0.0000000000000000e+00  0.0000000000000000e+00  7.8634499081080250e-02  2.5363685570451633e-01  0.0000000000000000e+00  0.0000000000000000e+00
             0.0000000000000000e+00  0.0000000000000000e+00  9.2126146517954255e-01 -2.6804950648503045e-01  0.0000000000000000e+00  0.0000000000000000e+00  7.8634499081080250e-02  2.5363685570451633e-01
 4510000000  8.4998431757577403e-02  2.6320162236773037e-01  0.0000000000000000e+00  0.0000000000000000e+00  9.1488789912532364e-01 -2.7826647653058784e-01  0.0000000000000000e+00  0.0000000000000000e+00
             0.0000000000000000e+00  0.0000000000000000e+00  8.4998431757577403e-02  2.6320162236773037e-01  0.0000000000000000e+00  0.0000000000000000e+00  9.1488789912532364e-01 -2.7826647653058784e-01
             9.1488789912532342e-01 -2.7826647653058778e-01  0.0000000000000000e+00  0.0000000000000000e+00  8.4998431757577472e-02  2.6320162236773037e-01  0.0000000000000000e+00  0.0000000000000000e+00
             0.0000000000000000e+00  0.0000000000000000e+00  9.1488789912532342e-01 -2.7826647653058778e-01  0.0000000000000000e+00  0.0000000000000000e+00  8.4998431757577472e-02  2.6320162236773037e-01
 4705000000  9.1545238015158695e-02  2.7254737723077105e-01  0.0000000000000000e+00  0.0000000000000000e+00  9.0833103081910671e-01 -2.8826455136811419e-01  0.0000000000000000e+00  0.0000000000000000e+00
             0.0000000000000000e+00  0.0000000000000000e+00  9.1545238015158695e-02  2.7254737723077105e-01  0.0000000000000000e+00  0.0000000000000000e+00  9.0833103081910671e-01 -2.8826455136811419e-01
             9.0833103081910682e-01 -2.8826455136811424e-01  0.0000000000000000e+00  0.0000000000000000e+00  9.1545238015158695e-02  2.7254737723077099e-01  0.0000000000000000e+00  0.0000000000000000e+00
             0.0000000000000000e+00  0.0000000000000000e+00  9.0833103081910682e-01 -2.8826455136811424e-01  0.0000000000000000e+00  0.0000000000000000e+00  9.1545238015158695e-02  2.7254737723077099e-01
 4900000000  9.8265479468862729e-02  2.8167025724123601e-01  0.0000000000000000e+00  0.0000000000000000e+00  9.0160029829255361e-01 -2.9803987301355150e-01  0.0000000000000000e+00  0.0000000000000000e+00
             0.0000000000000000e+00  0.0000000000000000e+00  9.8265479468862729e-02  2.8167025724123601e-01  0.0000000000000000e+00  0.0000000000000000e+00  9.0160029829255361e-01 -2.9803987301355150e-01
             9.0160029829255384e-01 -2.9803987301355161e-01  0.0000000000000000e+00  0.0000000000000000e+00  9.8265479468862688e-02  2.8167025724123607e-01  0.0000000000000000e+00  0.0000000000000000e+00
             0.0000000000000000e+00  0.0000000000000000e+00  9.0160029829255384e-01 -2.9803987301355161e-01  0.0000000000000000e+00  0.0000000000000000e+00  9.8265479468862688e-02  2.8167025724123607e-01
 5095000000  1.0514967426915754e-01  2.9056688958654470e-01  0.0000000000000000e+00  0.0000000000000000e+00  8.9470518302850421e-01 -3.0758907372619482e-01  0.0000000000000000e+00  0.0000000000000000e+00
             0.0000000000000000e+00  0.0000000000000000e+00  1.0514967426915754e-01  2.9056688958654470e-01  0.0000000000000000e+00  0.0000000000000000e+00  8.9470518302850421e-01 -3.0758907372619482e-01
             8.9470518302850421e-01 -3.0758907372619482e-01  0.0000000000000000e+00  0.0000000000000000e+00  1.0514967426915754e-01  2.9056688958654470e-01  0.0000000000000000e+00  0.0000000000000000e+00
             0.0000000000000000e+00  0.0000000000000000e+00  8.9470518302850421e-01 -3.0758907372619482e-01  0.0000000000000000e+00  0.0000000000000000e+00  1.0514967426915754e-01  2.9056688958654470e-01
 5290000000  1.1218832728710233e-01  2.9923438412495906e-01  0.0000000000000000e+00  0.0000000000000000e+00  8.8765517977575725e-01 -3.1690926843986528e-01  0.0000000000000000e+00  0.0000000000000000e+00
             0.0000000000000000e+00  0.0000000000000000e+00  1.1218832728710233e-01  2.9923438412495906e-01  0.0000000000000000e+00  0.0000000000000000e+00  8.8765517977575725e-01 -3.1690926843986528e-01
             8.8765517977575725e-01 -3.1690926843986528e-01  0.0000000000000000e+00  0.0000000000000000e+00  1.1218832728710235e-01  2.9923438412495912e-01  0.0000000000000000e+00  0.0000000000000000e+00
             0.0000000000000000e+00  0.0000000000000000e+00  8.8765517977575725e-01 -3.1690926843986528e-01  0.0000000000000000e+00  0.0000000000000000e+00  1.1218832728710235e-01  2.9923438412495912e-01
 5485000000  1.1937195878047502e-01  3.0767032404182920e-01  0.0000000000000000e+00  0.0000000000000000e+00  8.8045976788288682e-01 -3.2599804541930727e-01  0.0000000000000000e+00  0.0000000000000000e+00
             0.0000000000000000e+00  0.0000000000000000e+00  1.1937195878047502e-01  3.0767032404182920e-01  0.0000000000000000e+00  0.0000000000000000e+00  8.8045976788288682e-01 -3.2599804541930727e-01
             8.8045976788288682e-01 -3.2599804541930727e-01  0.0000000000000000e+00  0.0000000000000000e+00  1.1937195878047496e-01  3.0767032404182920e-01  0.0000000000000000e+00  0.0000000000000000e+00
             0.0000000000000000e+00  0.0000000000000000e+00  8.8045976788288682e-01 -3.2599804541930727e-01  0.0000000000000000e+00  0.0000000000000000e+00  1.1937195878047496e-01  3.0767032404182920e-01
 5680000000  1.2669113150062183e-01  3.1587275488627481e-01  0.0000000000000000e+00  0.0000000000000000e+00  8.7312838419133776e-01 -3.3485345529702293e-01  0.0000000000000000e+00  0.0000000000000000e+00
