# Hz S RI R 100

1.000000000000000e+11  7.3001712272017194e-01 -2.4528483895965864e-01 -2.0095771601380186e-01 -5.9813722371358669e-01 -2.0095771601380200e-01 -5.9813722371358680e-01  7.3001712272017205e-01 -2.4528483895965864e-01
1.000460669150362e+11  7.2968610671365608e-01 -2.4571521654367284e-01 -2.0143066301286996e-01 -5.9819980325395716e-01 -2.0143066301286983e-01 -5.9819980325395683e-01  7.2968610671365619e-01 -2.4571521654367290e-01
1.000921550516794e+11  7.2935413280743888e-01 -2.4614562980195409e-01 -2.0190441796920305e-01 -5.9826236908297636e-01 -2.0190441796920303e-01 -5.9826236908297636e-01  7.2935413280743866e-01 -2.4614562980195406e-01
1.001382644197050e+11  7.2902119872057636e-01 -2.4657607759799022e-01 -2.0237898318909039e-01 -5.9832492002246029e-01 -2.0237898318909039e-01 -5.9832492002246052e-01  7.2902119872057647e-01 -2.4657607759799027e-01
1.001843950288940e+11  7.2868730216609867e-01 -2.4700655878735270e-01 -2.0285436098476789e-01 -5.9838745488608669e-01 -2.0285436098476786e-01 -5.9838745488608658e-01  7.2868730216609856e-01 -2.4700655878735261e-01
1.002305468890319e+11  7.2835244085101047e-01 -2.4743707221763811e-01 -2.0333055367441477e-01 -5.9844997247934673e-01 -2.0333055367441483e-01 -5.9844997247934673e-01  7.2835244085101047e-01 -2.4743707221763808e-01
1.002767200099076e+11  7.2801661247628979e-01 -2.4786761672841015e-01 -2.0380756358215124e-01 -5.9851247159949483e-01 -2.0380756358215116e-01 -5.9851247159949472e-01  7.2801661247628990e-01 -2.4786761672841015e-01
1.003229144013156e+11  7.2767981473686305e-01 -2.4829819115117099e-01 -2.0428539303806903e-01 -5.9857495103550273e-01 -2.0428539303806903e-01 -5.9857495103550273e-01  7.2767981473686316e-01 -2.4829819115117105e-01
1.003691300730551e+11  7.2734204532160507e-01 -2.4872879430930395e-01 -2.0476404437822956e-01 -5.9863740956800904e-01 -2.0476404437822962e-01 -5.9863740956800915e-01  7.2734204532160496e-01 -2.4872879430930395e-01
1.004153670349285e+11  7.2700330191333795e-01 -2.4915942501801153e-01 -2.0524351994465917e-01 -5.9869984596926917e-01 -2.0524351994465928e-01 -5.9869984596926928e-01  7.2700330191333795e-01 -2.4915942501801150e-01
1.004616252967437e+11  7.2666358218880833e-01 -2.4959008208428807e-01 -2.0572382208538029e-01 -5.9876225900310764e-01 -2.0572382208538031e-01 -5.9876225900310776e-01  7.2666358218880833e-01 -2.4959008208428807e-01
1.005079048683136e+11  7.2632288381868326e-01 -2.5002076430686154e-01 -2.0620495315441048e-01 -5.9882464742486741e-01 -2.0620495315441056e-01 -5.9882464742486752e-01  7.2632288381868326e-01 -2.5002076430686149e-01
1.005542057594539e+11  7.2598120446755565e-01 -2.5045147047612848e-01 -2.0668691551175369e-01 -5.9888700998135791e-01 -2.0668691551175369e-01 -5.9888700998135791e-01  7.2598120446755554e-01 -2.5045147047612837e-01
1.006005279799865e+11  7.2563854179391529e-01 -2.5088219937412987e-01 -2.0716971152343677e-01 -5.9894934541080858e-01 -2.0716971152343677e-01 -5.9894934541080858e-01  7.2563854179391540e-01 -2.5088219937412992e-01
1.006468715397374e+11  7.2529489345015041e-01 -2.5131294977448804e-01 -2.0765334356150328e-01 -5.9901165244281562e-01 -2.0765334356150328e-01 -5.9901165244281562e-01  7.2529489345015052e-01 -2.5131294977448809e-01
1.006932364485362e+11  7.2495025708255012e-01 -2.5174372044234278e-01 -2.0813781400400655e-01 -5.9907392979828966e-01 -2.0813781400400655e-01 -5.9907392979828966e-01  7.2495025708255012e-01 -2.5174372044234278e-01
1.007396227162182e+11  7.2460463033127598e-01 -2.5217451013432696e-01 -2.0862312523504714e-01 -5.9913617618940851e-01 -2.0862312523504714e-01 -5.9913617618940851e-01  7.2460463033127609e-01 -2.5217451013432696e-01
1.007860303526231e+11  7.2425801083036567e-01 -2.5260531759849969e-01 -2.0910927964476281e-01 -5.9919839031956235e-01 -2.0910927964476272e-01 -5.9919839031956212e-01  7.2425801083036567e-01 -2.5260531759849969e-01
1.008324593675940e+11  7.2391039620773379e-01 -2.5303614157428489e-01 -2.0959627962932498e-01 -5.9926057088330165e-01 -2.0959627962932498e-01 -5.9926057088330165e-01  7.2391039620773368e-01 -2.5303614157428483e-01
1.008789097709802e+11  7.2356178408514205e-01 -2.5346698079244784e-01 -2.1008412759097803e-01 -5.9932271656628922e-01 -2.1008412759097803e-01 -5.9932271656628910e-01  7.2356178408514216e-01 -2.5346698079244784e-01
1.009253815726338e+11  7.2321217207821720e-01 -2.5389783397500915e-01 -2.1057282593800819e-01 -5.9938482604524124e-01 -2.1057282593800819e-01 -5.9938482604524124e-01  7.2321217207821731e-01 -2.5389783397500920e-01
1.009718747824129e+11  7.2286155779642303e-01 -2.5432869983522138e-01 -2.1106237708478390e-01 -5.9944689798788109e-01 -2.1106237708478384e-01 -5.9944689798788109e-01  7.2286155779642303e-01 -2.5432869983522138e-01
1.010183894101797e+11  7.2250993884305881e-01 -2.5475957707750430e-01 -2.1155278345174897e-01 -5.9950893105288272e-01 -2.1155278345174897e-01 -5.9950893105288272e-01  7.2250993884305881e-01 -2.5475957707750430e-01
1.010649254658003e+11  7.2215731281526740e-01 -2.5519046439737864e-01 -2.1204404746541461e-01 -5.9957092388981614e-01 -2.1204404746541461e-01 -5.9957092388981614e-01  7.2215731281526729e-01 -2.5519046439737858e-01
1.011114829591460e+11  7.2180367730400341e-01 -2.5562136048143735e-01 -2.1253617155839472e-01 -5.9963287513909735e-01 -2.1253617155839472e-01 -5.9963287513909735e-01  7.2180367730400352e-01 -2.5562136048143747e-01
1.011580619000931e+11  7.2144902989403947e-01 -2.5605226400728082e-01 -2.1302915816939880e-01 -5.9969478343193239e-01 -2.1302915816939882e-01 -5.9969478343193239e-01  7.2144902989403947e-01 -2.5605226400728082e-01
1.012046622985209e+11  7.2109336816396874e-01 -2.5648317364344875e-01 -2.1352300974322377e-01 -5.9975664739026291e-01 -2.1352300974322372e-01 -5.9975664739026280e-01  7.2109336816396874e-01 -2.5648317364344875e-01
1.012512841643146e+11  7.2073668968617621e-01 -2.5691408804939281e-01 -2.1401772873079003e-01 -5.9981846562671215e-01 -2.1401772873079003e-01 -5.9981846562671215e-01  7.2073668968617621e-01 -2.5691408804939281e-01
1.012979275073641e+11  7.2037899202684541e-01 -2.5734500587540587e-01 -2.1451331758913050e-01 -5.9988023674453073e-01 -2.1451331758913050e-01 -5.9988023674453073e-01  7.2037899202684552e-01 -2.5734500587540593e-01
1.013445923375623e+11  7.2002027274595881e-01 -2.5777592576255964e-01 -2.1500977878138730e-01 -5.9994195933753947e-01 -2.1500977878138722e-01 -5.9994195933753924e-01  7.2002027274595892e-01 -2.5777592576255970e-01
1.013912786648082e+11  7.1966052939727476e-01 -2.5820684634266894e-01 -2.1550711477684062e-01 -6.0000363199007589e-01 -2.1550711477684073e-01 -6.0000363199007622e-01  7.1966052939727476e-01 -2.5820684634266894e-01
1.014379864990053e+11  7.1929975952832748e-01 -2.5863776623822760e-01 -2.1600532805090555e-01 -6.0006525327693916e-01 -2.1600532805090567e-01 -6.0006525327693927e-01  7.1929975952832748e-01 -2.5863776623822765e-01
1.014847158500602e+11  7.1893796068043370e-01 -2.5906868406233968e-01 -2.1650442108512152e-01 -6.0012682176332943e-01 -2.1650442108512152e-01 -6.0012682176332943e-01  7.1893796068043381e-01 -2.5906868406233979e-01
1.015314667278856e+11  7.1857513038866616e-01 -2.5949959841868564e-01 -2.1700439636718524e-01 -6.0018833600479737e-01 -2.1700439636718516e-01 -6.0018833600479715e-01  7.1857513038866616e-01 -2.5949959841868564e-01
1.015782391423986e+11  7.1821126618185660e-01 -2.5993050790145483e-01 -2.1750525639094351e-01 -6.0024979454718352e-01 -2.1750525639094348e-01 -6.0024979454718341e-01  7.1821126618185649e-01 -2.5993050790145483e-01
1.016250331035196e+11  7.1784636558260173e-01 -2.6036141109527855e-01 -2.1800700365638601e-01 -6.0031119592656235e-01 -2.1800700365638601e-01 -6.0031119592656235e-01  7.1784636558260173e-01 -2.6036141109527849e-01
1.016718486211749e+11  7.1748042610723617e-01 -2.6079230657519314e-01 -2.1850964066967485e-01 -6.0037253866918461e-01 -2.1850964066967485e-01 -6.0037253866918461e-01  7.1748042610723595e-01 -2.6079230657519303e-01
1.017186857052954e+11  7.1711344526583698e-01 -2.6122319290657425e-01 -2.1901316994314057e-01 -6.0043382129142175e-01 -2.1901316994314066e-01 -6.0043382129142187e-01  7.1711344526583698e-01 -2.6122319290657425e-01
1.017655443658152e+11  7.1674542056222967e-01 -2.6165406864506424e-01 -2.1951759399526877e-01 -6.0049504229970319e-01 -2.1951759399526877e-01 -6.0049504229970319e-01  7.1674542056222956e-01 -2.6165406864506419e-01
1.018124246126743e+11  7.1637634949396167e-01 -2.6208493233653929e-01 -2.2002291535073584e-01 -6.0055620019046285e-01 -2.2002291535073584e-01 -6.0055620019046285e-01  7.1637634949396145e-01 -2.6208493233653918e-01
1.018593264558174e+11  7.1600622955230775e-01 -2.6251578251703844e-01 -2.2052913654039843e-01 -6.0061729345007886e-01 -2.2052913654039843e-01 -6.0061729345007886e-01  7.1600622955230786e-01 -2.6251578251703844e-01
1.019062499051922e+11  7.1563505822227491e-01 -2.6294661771269362e-01 -2.2103626010128510e-01 -6.0067832055481174e-01 -2.2103626010128510e-01 -6.0067832055481174e-01  7.1563505822227469e-01 -2.6294661771269362e-01
1.019531949707526e+11  7.1526283298257687e-01 -2.6337743643969480e-01 -2.2154428857662939e-01 -6.0073927997075049e-01 -2.2154428857662939e-01 -6.0073927997075038e-01  7.1526283298257676e-01 -2.6337743643969475e-01
1.020001616624569e+11  7.1488955130564169e-01 -2.6380823720421531e-01 -2.2205322451585649e-01 -6.0080017015374865e-01 -2.2205322451585646e-01 -6.0080017015374865e-01  7.1488955130564158e-01 -2.6380823720421526e-01
1.020471499902668e+11  7.1451521065761403e-01 -2.6423901850234532e-01 -2.2256307047457918e-01 -6.0086098954936473e-01 -2.2256307047457916e-01 -6.0086098954936473e-01  7.1451521065761403e-01 -2.6423901850234532e-01
1.020941599641496e+11  7.1413980849833358e-01 -2.6466977882005083e-01 -2.2307382901462497e-01 -6.0092173659280446e-01 -2.2307382901462497e-01 -6.0092173659280446e-01  7.1413980849833358e-01 -2.6466977882005083e-01
1.021411915940777e+11  7.1376334228133886e-01 -2.6510051663310424e-01 -2.2358550270402894e-01 -6.0098240970885808e-01 -2.2358550270402899e-01 -6.0098240970885808e-01  7.1376334228133897e-01 -2.6510051663310430e-01
1.021882448900263e+11  7.1338580945387398e-01 -2.6553123040701099e-01 -2.2409809411702314e-01 -6.0104300731183824e-01 -2.2409809411702306e-01 -6.0104300731183813e-01  7.1338580945387409e-01 -2.6553123040701099e-01
1.022353198619768e+11  7.1300720745686408e-01 -2.6596191859697105e-01 -2.2461160583406692e-01 -6.0110352780552179e-01 -2.2461160583406703e-01 -6.0110352780552201e-01  7.1300720745686408e-01 -2.6596191859697110e-01
1.022824165199150e+11  7.1262753372492349e-01 -2.6639257964780655e-01 -2.2512604044183723e-01 -6.0116396958308671e-01 -2.2512604044183732e-01 -6.0116396958308693e-01  7.1262753372492360e-01 -2.6639257964780655e-01
1.023295348738302e+11  7.1224678568635813e-01 -2.6682321199388992e-01 -2.2564140053322029e-01 -6.0122433102704798e-01 -2.2564140053322029e-01 -6.0122433102704798e-01  7.1224678568635824e-01 -2.6682321199388997e-01
1.023766749337179e+11  7.1186496076314354e-01 -2.6725381405910442e-01 -2.2615768870734196e-01 -6.0128461050919901e-01 -2.2615768870734196e-01 -6.0128461050919901e-01  7.1186496076314365e-01 -2.6725381405910442e-01
1.024238367095765e+11  7.1148205637094353e-01 -2.6768438425675595e-01 -2.2667490756953992e-01 -6.0134480639054511e-01 -2.2667490756953992e-01 -6.0134480639054511e-01  7.1148205637094364e-01 -2.6768438425675600e-01
1.024710202114103e+11  7.1109806991908819e-01 -2.6811492098953321e-01 -2.2719305973139386e-01 -6.0140491702124366e-01 -2.2719305973139384e-01 -6.0140491702124366e-01  7.1109806991908808e-01 -2.6811492098953316e-01
1.025182254492283e+11  7.1071299881057648e-01 -2.6854542264943548e-01 -2.2771214781071786e-01 -6.0146494074053980e-01 -2.2771214781071786e-01 -6.0146494074053980e-01  7.1071299881057626e-01 -2.6854542264943537e-01
1.025654524330426e+11  7.1032684044208683e-01 -2.6897588761769509e-01 -2.2823217443154631e-01 -6.0152487587670000e-01 -2.2823217443154631e-01 -6.0152487587670000e-01  7.1032684044208683e-01 -2.6897588761769509e-01
1.026127011728714e+11  7.0993959220395275e-01 -2.6940631426473977e-01 -2.2875314222416654e-01 -6.0158472074695202e-01 -2.2875314222416651e-01 -6.0158472074695191e-01  7.0993959220395275e-01 -2.6940631426473971e-01
1.026599716787375e+11  7.0955125148017029e-01 -2.6983670095011442e-01 -2.2927505382510596e-01 -6.0164447365741858e-01 -2.2927505382510596e-01 -6.0164447365741858e-01  7.0955125148017006e-01 -2.6983670095011442e-01
1.027072639606669e+11  7.0916181564840575e-01 -2.7026704602240564e-01 -2.2979791187712029e-01 -6.0170413290305080e-01 -2.2979791187712029e-01 -6.0170413290305080e-01  7.0916181564840564e-01 -2.7026704602240548e-01
1.027545780286917e+11  7.0877128207997531e-01 -2.7069734781919896e-01 -2.3032171902922183e-01 -6.0176369676756625e-01 -2.3032171902922186e-01 -6.0176369676756636e-01  7.0877128207997520e-01 -2.7069734781919891e-01
1.028019138928484e+11  7.0837964813985010e-01 -2.7112760466700464e-01 -2.3084647793667082e-01 -6.0182316352338228e-01 -2.3084647793667082e-01 -6.0182316352338228e-01  7.0837964813984999e-01 -2.7112760466700458e-01
1.028492715631770e+11  7.0798691118666612e-01 -2.7155781488117736e-01 -2.3137219126095965e-01 -6.0188253143154768e-01 -2.3137219126095970e-01 -6.0188253143154768e-01  7.0798691118666623e-01 -2.7155781488117736e-01
1.028966510497234e+11  7.0759306857270265e-01 -2.7198797676587488e-01 -2.3189886166984322e-01 -6.0194179874167963e-01 -2.3189886166984322e-01 -6.0194179874167963e-01  7.0759306857270277e-01 -2.7198797676587494e-01
1.029440523625380e+11  7.0719811764388940e-01 -2.7241808861398054e-01 -2.3242649183732747e-01 -6.0200096369189693e-01 -2.3242649183732747e-01 -6.0200096369189693e-01  7.0719811764388940e-01 -2.7241808861398054e-01
1.029914755116747e+11  7.0680205573981814e-01 -2.7284814870702295e-01 -2.3295508444365362e-01 -6.0206002450874962e-01 -2.3295508444365354e-01 -6.0206002450874951e-01  7.0680205573981825e-01 -2.7284814870702301e-01
1.030389205071932e+11  7.0640488019371794e-01 -2.7327815531513383e-01 -2.3348464217532933e-01 -6.0211897940715553e-01 -2.3348464217532933e-01 -6.0211897940715553e-01  7.0640488019371805e-01 -2.7327815531513389e-01
1.030863873591579e+11  7.0600658833246654e-01 -2.7370810669696843e-01 -2.3401516772511463e-01 -6.0217782659033126e-01 -2.3401516772511463e-01 -6.0217782659033126e-01  7.0600658833246666e-01 -2.7370810669696843e-01
1.031338760776365e+11  7.0560717747659985e-01 -2.7413800109962533e-01 -2.3454666379200734e-01 -6.0223656424972161e-01 -2.3454666379200734e-01 -6.0223656424972161e-01  7.0560717747660007e-01 -2.7413800109962538e-01
1.031813866727027e+11  7.0520664494028951e-01 -2.7456783675860263e-01 -2.3507913308127323e-01 -6.0229519056493530e-01 -2.3507913308127323e-01 -6.0229519056493530e-01  7.0520664494028951e-01 -2.7456783675860263e-01
1.032289191544349e+11  7.0480498803135516e-01 -2.7499761189771665e-01 -2.3561257830443008e-01 -6.0235370370367425e-01 -2.3561257830443008e-01 -6.0235370370367425e-01  7.0480498803135516e-01 -2.7499761189771660e-01
1.032764735329145e+11  7.0440220405127163e-01 -2.7542732472902148e-01 -2.3614700217923434e-01 -6.0241210182166138e-01 -2.3614700217923429e-01 -6.0241210182166127e-01  7.0440220405127163e-01 -2.7542732472902148e-01
1.033240498182293e+11  7.0399829029515204e-01 -2.7585697345276305e-01 -2.3668240742970867e-01 -6.0247038306257661e-01 -2.3668240742970872e-01 -6.0247038306257683e-01  7.0399829029515215e-01 -2.7585697345276305e-01
1.033716480204715e+11  7.0359324405175394e-01 -2.7628655625729875e-01 -2.3721879678612867e-01 -6.0252854555798352e-01 -2.3721879678612873e-01 -6.0252854555798352e-01  7.0359324405175383e-01 -2.7628655625729864e-01
1.034192681497366e+11  7.0318706260349473e-01 -2.7671607131901349e-01 -2.3775617298500537e-01 -6.0258658742725768e-01 -2.3775617298500537e-01 -6.0258658742725768e-01  7.0318706260349462e-01 -2.7671607131901343e-01
1.034669102161262e+11  7.0277974322642911e-01 -2.7714551680227323e-01 -2.3829453876911308e-01 -6.0264450677751902e-01 -2.3829453876911322e-01 -6.0264450677751913e-01  7.0277974322642933e-01 -2.7714551680227323e-01
1.035145742297465e+11  7.0237128319026043e-01 -2.7757489085934350e-01 -2.3883389688747633e-01 -6.0270230170355998e-01 -2.3883389688747633e-01 -6.0270230170355998e-01  7.0237128319026032e-01 -2.7757489085934345e-01
1.035622602007070e+11  7.0196167975835255e-01 -2.7800419163030643e-01 -2.3937425009535246e-01 -6.0275997028777151e-01 -2.3937425009535235e-01 -6.0275997028777129e-01  7.0196167975835266e-01 -2.7800419163030649e-01
1.036099681391232e+11  7.0155093018771109e-01 -2.7843341724300980e-01 -2.3991560115425692e-01 -6.0281751060007371e-01 -2.3991560115425686e-01 -6.0281751060007360e-01  7.0155093018771120e-01 -2.7843341724300985e-01
1.036576980551153e+11  7.0113903172899350e-01 -2.7886256581298691e-01 -2.4045795283195154e-01 -6.0287492069784410e-01 -2.4045795283195154e-01 -6.0287492069784410e-01  7.0113903172899350e-01 -2.7886256581298691e-01
1.037054499588069e+11  7.0072598162652466e-01 -2.7929163544336938e-01 -2.4100130790242247e-01 -6.0293219862584113e-01 -2.4100130790242250e-01 -6.0293219862584113e-01  7.0072598162652477e-01 -2.7929163544336938e-01
1.037532238603273e+11  7.0031177711827419e-01 -2.7972062422483956e-01 -2.4154566914591122e-01 -6.0298934241613533e-01 -2.4154566914591122e-01 -6.0298934241613533e-01  7.0031177711827419e-01 -2.7972062422483956e-01
1.038010197698108e+11  6.9989641543587156e-01 -2.8014953023554456e-01 -2.4209103934889500e-01 -6.0304635008803364e-01 -2.4209103934889500e-01 -6.0304635008803353e-01  6.9989641543587144e-01 -2.8014953023554451e-01
1.038488376973949e+11  6.9947989380461872e-01 -2.8057835154101191e-01 -2.4263742130407115e-01 -6.0310321964800473e-01 -2.4263742130407115e-01 -6.0310321964800473e-01  6.9947989380461850e-01 -2.8057835154101191e-01
1.038966776532230e+11  6.9906220944347064e-01 -2.8100708619409770e-01 -2.4318481781038173e-01 -6.0315994908960746e-01 -2.4318481781038170e-01 -6.0315994908960746e-01  6.9906220944347064e-01 -2.8100708619409770e-01
1.039445396474434e+11  6.9864335956505053e-01 -2.8143573223490082e-01 -2.4373323167299624e-01 -6.0321653639341399e-01 -2.4373323167299632e-01 -6.0321653639341422e-01  6.9864335956505064e-01 -2.8143573223490093e-01
1.039924236902076e+11  6.9822334137566311e-01 -2.8186428769067717e-01 -2.4428266570329379e-01 -6.0327297952693448e-01 -2.4428266570329388e-01 -6.0327297952693482e-01  6.9822334137566311e-01 -2.8186428769067717e-01
1.040403297916734e+11  6.9780215207527163e-01 -2.8229275057579073e-01 -2.4483312271889346e-01 -6.0332927644454404e-01 -2.4483312271889340e-01 -6.0332927644454382e-01  6.9780215207527163e-01 -2.8229275057579073e-01
1.040882579620020e+11  6.9737978885753216e-01 -2.8272111889160739e-01 -2.4538460554361080e-01 -6.0338542508740267e-01 -2.4538460554361077e-01 -6.0338542508740245e-01  6.9737978885753205e-01 -2.8272111889160728e-01
1.041362082113600e+11  6.9695624890977204e-01 -2.8314939062644506e-01 -2.4593711700748758e-01 -6.0344142338338380e-01 -2.4593711700748772e-01 -6.0344142338338391e-01  6.9695624890977204e-01 -2.8314939062644495e-01
1.041841805499191e+11  6.9653152941300378e-01 -2.8357756375548726e-01 -2.4649065994677416e-01 -6.0349726924699476e-01 -2.4649065994677410e-01 -6.0349726924699476e-01  6.9653152941300389e-01 -2.8357756375548726e-01
1.042321749878542e+11  6.9610562754194172e-01 -2.8400563624069242e-01 -2.4704523720390709e-01 -6.0355296057929841e-01 -2.4704523720390709e-01 -6.0355296057929841e-01  6.9610562754194172e-01 -2.8400563624069236e-01
1.042801915353462e+11  6.9567854046498356e-01 -2.8443360603074241e-01 -2.4760085162753731e-01 -6.0360849526783888e-01 -2.4760085162753731e-01 -6.0360849526783911e-01  6.9567854046498345e-01 -2.8443360603074236e-01
1.043282302025808e+11  6.9525026534422796e-01 -2.8486147106095006e-01 -2.4815750607250633e-01 -6.0366387118656251e-01 -2.4815750607250628e-01 -6.0366387118656240e-01  6.9525026534422796e-01 -2.8486147106095011e-01
