# Hz S RI R 100

1.000000000000000e+05  1.2048192781439825e-02  2.8816321075094820e-06  9.8795180721833642e-01 -3.5492364330636060e-06  9.8795180721833620e-01 -3.5492364330635971e-06  1.2048192781439896e-02  2.8816321075094820e-06
1.000921550516792e+05  1.2048192781464233e-02  2.8842876717802968e-06  9.8795180721831155e-01 -3.5525072284459419e-06  9.8795180721831155e-01 -3.5525072284459373e-06  1.2048192781464302e-02  2.8842876717802968e-06
1.001843950288942e+05  1.2048192781481257e-02  2.8869456906575811e-06  9.8795180721829423e-01 -3.5557810454008838e-06  9.8795180721829423e-01 -3.5557810454008855e-06  1.2048192781481327e-02  2.8869456906575802e-06
1.002767200099076e+05  1.2048192781511837e-02  2.8896061456320551e-06  9.8795180721826314e-01 -3.5590578659428064e-06  9.8795180721826303e-01 -3.5590578659428098e-06  1.2048192781511768e-02  2.8896061456320551e-06
1.003691300730549e+05  1.2048192781521371e-02  2.8922690733226321e-06  9.8795180721825304e-01 -3.5623377272116578e-06  9.8795180721825304e-01 -3.5623377272116641e-06  1.2048192781521441e-02  2.8922690733226312e-06
1.004616252967439e+05  1.2048192781537530e-02  2.8949344484672056e-06  9.8795180721823650e-01 -3.5656206044703405e-06  9.8795180721823650e-01 -3.5656206044703426e-06  1.2048192781537601e-02  2.8949344484672056e-06
1.005542057594540e+05  1.2048192781558440e-02  2.8976022753041639e-06  9.8795180721821529e-01 -3.5689065024810549e-06  9.8795180721821529e-01 -3.5689065024810536e-06  1.2048192781558371e-02  2.8976022753041643e-06
1.006468715397374e+05  1.2048192781585214e-02  2.9002725547111919e-06  9.8795180721818820e-01 -3.5721954226459863e-06  9.8795180721818820e-01 -3.5721954226459842e-06  1.2048192781585143e-02  2.9002725547111919e-06
1.007396227162184e+05  1.2048192781604530e-02  2.9029453024087544e-06  9.8795180721816855e-01 -3.5754873812097315e-06  9.8795180721816855e-01 -3.5754873812097421e-06  1.2048192781604461e-02  2.9029453024087548e-06
1.008324593675940e+05  1.2048192781628249e-02  2.9056205088459009e-06  9.8795180721814413e-01 -3.5787823691474043e-06  9.8795180721814446e-01 -3.5787823691474157e-06  1.2048192781628180e-02  2.9056205088459005e-06
1.009253815726338e+05  1.2048192781634947e-02  2.9082981975612918e-06  9.8795180721813725e-01 -3.5820804105223367e-06  9.8795180721813725e-01 -3.5820804105223342e-06  1.2048192781634947e-02  2.9082981975612913e-06
1.010183894101795e+05  1.2048192781658048e-02  2.9109783376660367e-06  9.8795180721811371e-01 -3.5853814749738451e-06  9.8795180721811349e-01 -3.5853814749738422e-06  1.2048192781658119e-02  2.9109783376660367e-06
1.011114829591460e+05  1.2048192781679170e-02  2.9136609495903437e-06  9.8795180721809195e-01 -3.5886855834579619e-06  9.8795180721809195e-01 -3.5886855834579547e-06  1.2048192781679170e-02  2.9136609495903437e-06
1.012046622985209e+05  1.2048192781694646e-02  2.9163460394326511e-06  9.8795180721807629e-01 -3.5919927426002243e-06  9.8795180721807629e-01 -3.5919927426002222e-06  1.2048192781694715e-02  2.9163460394326511e-06
1.012979275073638e+05  1.2048192781722153e-02  2.9190335917217880e-06  9.8795180721804832e-01 -3.5953029374582796e-06  9.8795180721804798e-01 -3.5953029374582843e-06  1.2048192781722082e-02  2.9190335917217880e-06
1.013912786648085e+05  1.2048192781742760e-02  2.9217236276566421e-06  9.8795180721802722e-01 -3.5986161897582469e-06  9.8795180721802744e-01 -3.5986161897582511e-06  1.2048192781742691e-02  2.9217236276566426e-06
1.014847158500602e+05  1.2048192781762709e-02  2.9244161432112785e-06  9.8795180721800668e-01 -3.6019324960033160e-06  9.8795180721800668e-01 -3.6019324960033309e-06  1.2048192781762709e-02  2.9244161432112785e-06
1.015782391423984e+05  1.2048192781784504e-02  2.9271111382867357e-06  9.8795180721798470e-01 -3.6052518566239544e-06  9.8795180721798470e-01 -3.6052518566239557e-06  1.2048192781784574e-02  2.9271111382867353e-06
1.016718486211751e+05  1.2048192781803069e-02  2.9298086203109769e-06  9.8795180721796572e-01 -3.6085742795775719e-06  9.8795180721796561e-01 -3.6085742795775643e-06  1.2048192781803000e-02  2.9298086203109769e-06
1.017655443658152e+05  1.2048192781812727e-02  2.9325085969631380e-06  9.8795180721795550e-01 -3.6118997730732404e-06  9.8795180721795539e-01 -3.6118997730732332e-06  1.2048192781812727e-02  2.9325085969631380e-06
1.018593264558172e+05  1.2048192781837122e-02  2.9352110471636745e-06  9.8795180721793063e-01 -3.6152283165634848e-06  9.8795180721793063e-01 -3.6152283165634856e-06  1.2048192781837122e-02  2.9352110471636737e-06
1.019531949707528e+05  1.2048192781855730e-02  2.9379159936639940e-06  9.8795180721791165e-01 -3.6185599333297785e-06  9.8795180721791165e-01 -3.6185599333297789e-06  1.2048192781855800e-02  2.9379159936639931e-06
1.020471499902667e+05  1.2048192781869589e-02  2.9406234376773228e-06  9.8795180721789733e-01 -3.6218946251171170e-06  9.8795180721789710e-01 -3.6218946251171098e-06  1.2048192781869589e-02  2.9406234376773228e-06
1.021411915940777e+05  1.2048192781886744e-02  2.9433333734594769e-06  9.8795180721787978e-01 -3.6252323867139746e-06  9.8795180721787945e-01 -3.6252323867139738e-06  1.2048192781886744e-02  2.9433333734594773e-06
1.022353198619770e+05  1.2048192781911356e-02  2.9460457991520721e-06  9.8795180721785480e-01 -3.6285732167949037e-06  9.8795180721785447e-01 -3.6285732167949028e-06  1.2048192781911425e-02  2.9460457991520713e-06
1.023295348738302e+05  1.2048192781940165e-02  2.9487607204290606e-06  9.8795180721782538e-01 -3.6319171215668451e-06  9.8795180721782538e-01 -3.6319171215668498e-06  1.2048192781940094e-02  2.9487607204290606e-06
1.024238367095765e+05  1.2048192781954797e-02  2.9514781576803999e-06  9.8795180721781051e-01 -3.6352641219524050e-06  9.8795180721781040e-01 -3.6352641219524025e-06  1.2048192781954797e-02  2.9514781576803999e-06
1.025182254492280e+05  1.2048192781977022e-02  2.9541980917537534e-06  9.8795180721778775e-01 -3.6386141993346311e-06  9.8795180721778775e-01 -3.6386141993346332e-06  1.2048192781977093e-02  2.9541980917537526e-06
1.026127011728714e+05  1.2048192781991728e-02  2.9569205399544584e-06  9.8795180721777265e-01 -3.6419673715526720e-06  9.8795180721777265e-01 -3.6419673715526644e-06  1.2048192781991656e-02  2.9569205399544588e-06
1.027072639606669e+05  1.2048192782012431e-02  2.9596454909245285e-06  9.8795180721775144e-01 -3.6453236277844668e-06  9.8795180721775144e-01 -3.6453236277844621e-06  1.2048192782012501e-02  2.9596454909245281e-06
1.028019138928482e+05  1.2048192782038376e-02  2.9623729480306384e-06  9.8795180721772524e-01 -3.6486829719322780e-06  9.8795180721772513e-01 -3.6486829719322852e-06  1.2048192782038307e-02  2.9623729480306384e-06
1.028966510497236e+05  1.2048192782042649e-02  2.9651029401867461e-06  9.8795180721772025e-01 -3.6520454334446858e-06  9.8795180721772025e-01 -3.6520454334446791e-06  1.2048192782042649e-02  2.9651029401867461e-06
1.029914755116747e+05  1.2048192782074564e-02  2.9678354207476492e-06  9.8795180721768816e-01 -3.6554109662159281e-06  9.8795180721768805e-01 -3.6554109662159197e-06  1.2048192782074493e-02  2.9678354207476497e-06
1.030863873591577e+05  1.2048192782092158e-02  2.9705704335836300e-06  9.8795180721767006e-01 -3.6587796146510202e-06  9.8795180721766984e-01 -3.6587796146510104e-06  1.2048192782092158e-02  2.9705704335836300e-06
1.031813866727030e+05  1.2048192782111663e-02  2.9733079650911797e-06  9.8795180721765008e-01 -3.6621513656849942e-06  9.8795180721765008e-01 -3.6621513656849959e-06  1.2048192782111734e-02  2.9733079650911797e-06
1.032764735329145e+05  1.2048192782127045e-02  2.9760480235556055e-06  9.8795180721763443e-01 -3.6655262281409397e-06  9.8795180721763409e-01 -3.6655262281409384e-06  1.2048192782127045e-02  2.9760480235556055e-06
1.033716480204713e+05  1.2048192782160842e-02  2.9787905887386698e-06  9.8795180721760012e-01 -3.6689041823205341e-06  9.8795180721760012e-01 -3.6689041823205341e-06  1.2048192782160913e-02  2.9787905887386698e-06
1.034669102161264e+05  1.2048192782177685e-02  2.9815356982872330e-06  9.8795180721758280e-01 -3.6722852664077114e-06  9.8795180721758247e-01 -3.6722852664076957e-06  1.2048192782177756e-02  2.9815356982872321e-06
1.035622602007070e+05  1.2048192782203374e-02  2.9842833288795197e-06  9.8795180721755660e-01 -3.6756694576217712e-06  9.8795180721755660e-01 -3.6756694576217623e-06  1.2048192782203303e-02  2.9842833288795205e-06
1.036576980551153e+05  1.2048192782219950e-02  2.9870335006790400e-06  9.8795180721753983e-01 -3.6790567766653020e-06  9.8795180721753961e-01 -3.6790567766653079e-06  1.2048192782219950e-02  2.9870335006790400e-06
1.037532238603275e+05  1.2048192782241686e-02  2.9897862017138827e-06  9.8795180721751730e-01 -3.6824472121078348e-06  9.8795180721751763e-01 -3.6824472121078390e-06  1.2048192782241686e-02  2.9897862017138819e-06
1.038488376973949e+05  1.2048192782246754e-02  2.9925414562455025e-06  9.8795180721751208e-01 -3.6858407887506521e-06  9.8795180721751208e-01 -3.6858407887506373e-06  1.2048192782246754e-02  2.9925414562455029e-06
1.039445396474434e+05  1.2048192782284800e-02  2.9952992169467322e-06  9.8795180721747333e-01 -3.6892374598110495e-06  9.8795180721747333e-01 -3.6892374598110559e-06  1.2048192782284800e-02  2.9952992169467326e-06
1.040403297916732e+05  1.2048192782304578e-02  2.9980595373300547e-06  9.8795180721745335e-01 -3.6926372793406680e-06  9.8795180721745313e-01 -3.6926372793406523e-06  1.2048192782304578e-02  2.9980595373300551e-06
1.041362082113600e+05  1.2048192782319396e-02  3.0008224065148981e-06  9.8795180721743803e-01 -3.6960402370022607e-06  9.8795180721743803e-01 -3.6960402370022675e-06  1.2048192782319396e-02  3.0008224065148981e-06
1.042321749878542e+05  1.2048192782338554e-02  3.0035878175043193e-06  9.8795180721741827e-01 -3.6994463263425670e-06  9.8795180721741827e-01 -3.6994463263425615e-06  1.2048192782338554e-02  3.0035878175043193e-06
1.043282302025806e+05  1.2048192782356849e-02  3.0063557779035895e-06  9.8795180721739961e-01 -3.7028555555101281e-06  9.8795180721739939e-01 -3.7028555555101192e-06  1.2048192782356849e-02  3.0063557779035895e-06
1.044243739370400e+05  1.2048192782379412e-02  3.0091262848505509e-06  9.8795180721737663e-01 -3.7062679221871959e-06  9.8795180721737652e-01 -3.7062679221871836e-06  1.2048192782379483e-02  3.0091262848505513e-06
1.045206062728074e+05  1.2048192782407634e-02  3.0118993393124897e-06  9.8795180721734799e-01 -3.7096834278857266e-06  9.8795180721734799e-01 -3.7096834278857300e-06  1.2048192782407634e-02  3.0118993393124897e-06
1.046169272915336e+05  1.2048192782435544e-02  3.0146749497088418e-06  9.8795180721731957e-01 -3.7131020815699214e-06  9.8795180721731957e-01 -3.7131020815699290e-06  1.2048192782435544e-02  3.0146749497088414e-06
1.047133370749445e+05  1.2048192782453091e-02  3.0174531282852389e-06  9.8795180721730147e-01 -3.7165238960304464e-06  9.8795180721730125e-01 -3.7165238960304294e-06  1.2048192782453091e-02  3.0174531282852389e-06
1.048098357048410e+05  1.2048192782471786e-02  3.0202338660655317e-06  9.8795180721728237e-01 -3.7199488628378856e-06  9.8795180721728237e-01 -3.7199488628378885e-06  1.2048192782471786e-02  3.0202338660655313e-06
1.049064232630997e+05  1.2048192782495373e-02  3.0230171615300559e-06  9.8795180721725817e-01 -3.7233769810194462e-06  9.8795180721725817e-01 -3.7233769810194517e-06  1.2048192782495373e-02  3.0230171615300563e-06
1.050030998316728e+05  1.2048192782516854e-02  3.0258030241473234e-06  9.8795180721723663e-01 -3.7268082605903315e-06  9.8795180721723641e-01 -3.7268082605903357e-06  1.2048192782516854e-02  3.0258030241473234e-06
1.050998654925875e+05  1.2048192782528729e-02  3.0285914636218325e-06  9.8795180721722409e-01 -3.7302427118022286e-06  9.8795180721722409e-01 -3.7302427118022176e-06  1.2048192782528729e-02  3.0285914636218325e-06
1.051967203279472e+05  1.2048192782552158e-02  3.0313824613805136e-06  9.8795180721720022e-01 -3.7336803166314039e-06  9.8795180721720022e-01 -3.7336803166314136e-06  1.2048192782552229e-02  3.0313824613805136e-06
1.052936644199303e+05  1.2048192782571947e-02  3.0341760348095083e-06  9.8795180721718001e-01 -3.7371210930117707e-06  9.8795180721717990e-01 -3.7371210930117724e-06  1.2048192782571947e-02  3.0341760348095079e-06
1.053906978507914e+05  1.2048192782590670e-02  3.0369721837208050e-06  9.8795180721716080e-01 -3.7405650413045938e-06  9.8795180721716080e-01 -3.7405650413045841e-06  1.2048192782590670e-02  3.0369721837208050e-06
1.054878207028611e+05  1.2048192782614283e-02  3.0397709046350304e-06  9.8795180721713671e-01 -3.7440121585804767e-06  9.8795180721713660e-01 -3.7440121585804703e-06  1.2048192782614283e-02  3.0397709046350299e-06
1.055850330585451e+05  1.2048192782634052e-02  3.0425722085785839e-06  9.8795180721711628e-01 -3.7474624564154505e-06  9.8795180721711628e-01 -3.7474624564154661e-06  1.2048192782634052e-02  3.0425722085785839e-06
1.056823350003258e+05  1.2048192782658855e-02  3.0453760890438082e-06  9.8795180721709119e-01 -3.7509159288530686e-06  9.8795180721709097e-01 -3.7509159288530686e-06  1.2048192782658855e-02  3.0453760890438082e-06
1.057797266107614e+05  1.2048192782675998e-02  3.0481825611680421e-06  9.8795180721707365e-01 -3.7543725915810517e-06  9.8795180721707365e-01 -3.7543725915810441e-06  1.2048192782675998e-02  3.0481825611680421e-06
1.058772079724857e+05  1.2048192782700879e-02  3.0509916118413949e-06  9.8795180721704823e-01 -3.7578324320420960e-06  9.8795180721704812e-01 -3.7578324320420875e-06  1.2048192782700879e-02  3.0509916118413945e-06
1.059747791682094e+05  1.2048192782720322e-02  3.0538032567262789e-06  9.8795180721702835e-01 -3.7612954664500055e-06  9.8795180721702824e-01 -3.7612954664500034e-06  1.2048192782720322e-02  3.0538032567262789e-06
1.060724402807188e+05  1.2048192782738555e-02  3.0566174939369615e-06  9.8795180721700970e-01 -3.7647616934719898e-06  9.8795180721700948e-01 -3.7647616934719953e-06  1.2048192782738555e-02  3.0566174939369607e-06
1.061701913928770e+05  1.2048192782759532e-02  3.0594343218681255e-06  9.8795180721698816e-01 -3.7682311120561760e-06  9.8795180721698805e-01 -3.7682311120561688e-06  1.2048192782759532e-02  3.0594343218681255e-06
1.062680325876232e+05  1.2048192782783462e-02  3.0622537427503954e-06  9.8795180721696374e-01 -3.7717037249868808e-06  9.8795180721696407e-01 -3.7717037249868906e-06  1.2048192782783532e-02  3.0622537427503954e-06
1.063659639479728e+05  1.2048192782799595e-02  3.0650757697104614e-06  9.8795180721694720e-01 -3.7751795459443953e-06  9.8795180721694720e-01 -3.7751795459443944e-06  1.2048192782799595e-02  3.0650757697104614e-06
1.064639855570182e+05  1.2048192782832411e-02  3.0679003806500050e-06  9.8795180721691378e-01 -3.7786585533865666e-06  9.8795180721691378e-01 -3.7786585533865789e-06  1.2048192782832411e-02  3.0679003806500059e-06
1.065620974979283e+05  1.2048192782849460e-02  3.0707276105398608e-06  9.8795180721689646e-01 -3.7821407828375437e-06  9.8795180721689646e-01 -3.7821407828375560e-06  1.2048192782849460e-02  3.0707276105398603e-06
1.066602998539479e+05  1.2048192782867374e-02  3.0735574448994129e-06  9.8795180721687803e-01 -3.7856262203734637e-06  9.8795180721687803e-01 -3.7856262203734598e-06  1.2048192782867374e-02  3.0735574448994125e-06
1.067585927083998e+05  1.2048192782892268e-02  3.0763898802091274e-06  9.8795180721685261e-01 -3.7891148630313983e-06  9.8795180721685261e-01 -3.7891148630313945e-06  1.2048192782892268e-02  3.0763898802091278e-06
1.068569761446822e+05  1.2048192782911998e-02  3.0792249308969915e-06  9.8795180721683251e-01 -3.7926067257953877e-06  9.8795180721683240e-01 -3.7926067257953911e-06  1.2048192782911998e-02  3.0792249308969915e-06
1.069554502462712e+05  1.2048192782942729e-02  3.0820625833539700e-06  9.8795180721680131e-01 -3.7961017956146548e-06  9.8795180721680131e-01 -3.7961017956146662e-06  1.2048192782942729e-02  3.0820625833539700e-06
1.070540150967196e+05  1.2048192782961153e-02  3.0849028631726056e-06  9.8795180721678244e-01 -3.7996000986381573e-06  9.8795180721678244e-01 -3.7996000986381611e-06  1.2048192782961153e-02  3.0849028631726060e-06
1.071526707796567e+05  1.2048192782982739e-02  3.0877457572526817e-06  9.8795180721676046e-01 -3.8031016223249161e-06  9.8795180721676013e-01 -3.8031016223249111e-06  1.2048192782982739e-02  3.0877457572526817e-06
1.072514173787894e+05  1.2048192783001663e-02  3.0905912740176098e-06  9.8795180721674114e-01 -3.8066063756568093e-06  9.8795180721674081e-01 -3.8066063756568021e-06  1.2048192783001663e-02  3.0905912740176098e-06
1.073502549779017e+05  1.2048192783029151e-02  3.0934394044813545e-06  9.8795180721671283e-01 -3.8101143502078326e-06  9.8795180721671316e-01 -3.8101143502078313e-06  1.2048192783029082e-02  3.0934394044813558e-06
1.074491836608544e+05  1.2048192783055229e-02  3.0962901611121684e-06  9.8795180721668652e-01 -3.8136255590054963e-06  9.8795180721668652e-01 -3.8136255590054975e-06  1.2048192783055229e-02  3.0962901611121689e-06
1.075482035115860e+05  1.2048192783069489e-02  3.0991435566522062e-06  9.8795180721667175e-01 -3.8171400153517138e-06  9.8795180721667153e-01 -3.8171400153517061e-06  1.2048192783069558e-02  3.0991435566522062e-06
1.076473146141124e+05  1.2048192783096824e-02  3.1019995688006619e-06  9.8795180721664388e-01 -3.8206576975080519e-06  9.8795180721664377e-01 -3.8206576975080502e-06  1.2048192783096753e-02  3.1019995688006619e-06
1.077465170525263e+05  1.2048192783115672e-02  3.1048582214014014e-06  9.8795180721662457e-01 -3.8241786298785003e-06  9.8795180721662446e-01 -3.8241786298784994e-06  1.2048192783115672e-02  3.1048582214014022e-06
1.078458109109988e+05  1.2048192783132617e-02  3.1077195103468712e-06  9.8795180721660703e-01 -3.8277028089178227e-06  9.8795180721660703e-01 -3.8277028089178278e-06  1.2048192783132617e-02  3.1077195103468720e-06
1.079451962737778e+05  1.2048192783157373e-02  3.1105834282619932e-06  9.8795180721658193e-01 -3.8312302278139880e-06  9.8795180721658171e-01 -3.8312302278139812e-06  1.2048192783157443e-02  3.1105834282619932e-06
1.080446732251891e+05  1.2048192783178495e-02  3.1134499892097094e-06  9.8795180721656040e-01 -3.8347609011921812e-06  9.8795180721656006e-01 -3.8347609011921812e-06  1.2048192783178495e-02  3.1134499892097094e-06
1.081442418496366e+05  1.2048192783208603e-02  3.1163191828484056e-06  9.8795180721652975e-01 -3.8382948192750529e-06  9.8795180721652975e-01 -3.8382948192750639e-06  1.2048192783208603e-02  3.1163191828484060e-06
1.082439022316013e+05  1.2048192783228624e-02  3.1191910307752859e-06  9.8795180721650921e-01 -3.8418320042226577e-06  9.8795180721650955e-01 -3.8418320042226543e-06  1.2048192783228624e-02  3.1191910307752850e-06
1.083436544556424e+05  1.2048192783247164e-02  3.1220655267130715e-06  9.8795180721649023e-01 -3.8453724503227486e-06  9.8795180721649012e-01 -3.8453724503227402e-06  1.2048192783247164e-02  3.1220655267130715e-06
1.084434986063974e+05  1.2048192783265674e-02  3.1249426716892576e-06  9.8795180721647102e-01 -3.8489161591679526e-06  9.8795180721647102e-01 -3.8489161591679442e-06  1.2048192783265674e-02  3.1249426716892576e-06
1.085434347685809e+05  1.2048192783288872e-02  3.1278224634616425e-06  9.8795180721644738e-01 -3.8524631290819068e-06  9.8795180721644738e-01 -3.8524631290819093e-06  1.2048192783288942e-02  3.1278224634616421e-06
1.086434630269865e+05  1.2048192783317662e-02  3.1307049036185408e-06  9.8795180721641818e-01 -3.8560133622190757e-06  9.8795180721641818e-01 -3.8560133622190901e-06  1.2048192783317662e-02  3.1307049036185408e-06
1.087435834664851e+05  1.2048192783334981e-02  3.1335900115245762e-06  9.8795180721640041e-01 -3.8595668785096663e-06  9.8795180721640030e-01 -3.8595668785096493e-06  1.2048192783335052e-02  3.1335900115245758e-06
1.088437961720265e+05  1.2048192783369469e-02  3.1364777611934925e-06  9.8795180721636533e-01 -3.8631236525362432e-06  9.8795180721636566e-01 -3.8631236525362499e-06  1.2048192783369398e-02  3.1364777611934920e-06
