# Hz S RI R 100

1.000000000000000e+11  8.1007287684689111e-01 -5.1367573961056200e-02 -3.4406481754581462e-02 -5.7728352917936954e-01 -3.4406481754581449e-02 -5.7728352917936943e-01  8.1007287684689111e-01 -5.1367573961056193e-02
1.000460669150362e+11  8.1002709235474746e-01 -5.1729327276199735e-02 -3.4670672380950611e-02 -5.7729980314176532e-01 -3.4670672380950625e-02 -5.7729980314176554e-01  8.1002709235474768e-01 -5.1729327276199749e-02
1.000921550516794e+11  8.0998095287126881e-01 -5.2091245958515692e-02 -3.4935050540659894e-02 -5.7731619135483991e-01 -3.4935050540659894e-02 -5.7731619135483991e-01  8.0998095287126881e-01 -5.2091245958515699e-02
1.001382644197050e+11  8.0993445781483475e-01 -5.2453330060236392e-02 -3.5199616853629268e-02 -5.7733269391626352e-01 -3.5199616853629261e-02 -5.7733269391626341e-01  8.0993445781483475e-01 -5.2453330060236392e-02
1.001843950288940e+11  8.0988760660223214e-01 -5.2815579633362246e-02 -3.5464371941398919e-02 -5.7734931092330910e-01 -3.5464371941398905e-02 -5.7734931092330899e-01  8.0988760660223214e-01 -5.2815579633362246e-02
1.002305468890319e+11  8.0984039864865531e-01 -5.3177994729650020e-02 -3.5729316427127254e-02 -5.7736604247284951e-01 -3.5729316427127254e-02 -5.7736604247284951e-01  8.0984039864865531e-01 -5.3177994729650034e-02
1.002767200099076e+11  8.0979283336769992e-01 -5.3540575400600664e-02 -3.5994450935588840e-02 -5.7738288866135412e-01 -3.5994450935588826e-02 -5.7738288866135401e-01  8.0979283336769992e-01 -5.3540575400600664e-02
1.003229144013156e+11  8.0974491017135630e-01 -5.3903321697475061e-02 -3.6259776093192496e-02 -5.7739984958488721e-01 -3.6259776093192510e-02 -5.7739984958488744e-01  8.0974491017135630e-01 -5.3903321697475061e-02
1.003691300730551e+11  8.0969662847000523e-01 -5.4266233671282374e-02 -3.6525292527979682e-02 -5.7741692533910383e-01 -3.6525292527979675e-02 -5.7741692533910383e-01  8.0969662847000501e-01 -5.4266233671282374e-02
1.004153670349285e+11  8.0964798767241508e-01 -5.4629311372767705e-02 -3.6791000869622108e-02 -5.7743411601924777e-01 -3.6791000869622094e-02 -5.7743411601924766e-01  8.0964798767241486e-01 -5.4629311372767698e-02
1.004616252967437e+11  8.0959898718573331e-01 -5.4992554852427676e-02 -3.7056901749440083e-02 -5.7745142172014841e-01 -3.7056901749440069e-02 -5.7745142172014829e-01  8.0959898718573320e-01 -5.4992554852427676e-02
1.005079048683136e+11  8.0954962641548389e-01 -5.5355964160499788e-02 -3.7322995800401416e-02 -5.7746884253621844e-01 -3.7322995800401410e-02 -5.7746884253621833e-01  8.0954962641548378e-01 -5.5355964160499781e-02
1.005542057594539e+11  8.0949990476556255e-01 -5.5719539346947781e-02 -3.7589283657117771e-02 -5.7748637856144991e-01 -3.7589283657117778e-02 -5.7748637856145013e-01  8.0949990476556255e-01 -5.5719539346947781e-02
1.006005279799865e+11  8.0944982163822921e-01 -5.6083280461480124e-02 -3.7855765955864894e-02 -5.7750402988941252e-01 -3.7855765955864894e-02 -5.7750402988941252e-01  8.0944982163822921e-01 -5.6083280461480117e-02
1.006468715397374e+11  8.0939937643410498e-01 -5.6447187553536608e-02 -3.8122443334579863e-02 -5.7752179661325009e-01 -3.8122443334579849e-02 -5.7752179661324998e-01  8.0939937643410476e-01 -5.6447187553536594e-02
1.006932364485362e+11  8.0934856855216775e-01 -5.6811260672274919e-02 -3.8389316432858152e-02 -5.7753967882567703e-01 -3.8389316432858145e-02 -5.7753967882567703e-01  8.0934856855216775e-01 -5.6811260672274919e-02
1.007396227162182e+11  8.0929739738974427e-01 -5.7175499866589825e-02 -3.8656385891974704e-02 -5.7755767661897706e-01 -3.8656385891974704e-02 -5.7755767661897706e-01  8.0929739738974427e-01 -5.7175499866589825e-02
1.007860303526231e+11  8.0924586234250762e-01 -5.7539905185097377e-02 -3.8923652354879296e-02 -5.7757579008499882e-01 -3.8923652354879282e-02 -5.7757579008499871e-01  8.0924586234250750e-01 -5.7539905185097370e-02
1.008324593675940e+11  8.0919396280447153e-01 -5.7904476676124174e-02 -3.9191116466195816e-02 -5.7759401931515286e-01 -3.9191116466195823e-02 -5.7759401931515297e-01  8.0919396280447153e-01 -5.7904476676124174e-02
1.008789097709802e+11  8.0914169816798409e-01 -5.8269214387727676e-02 -3.9458778872244173e-02 -5.7761236440041031e-01 -3.9458778872244159e-02 -5.7761236440041019e-01  8.0914169816798420e-01 -5.8269214387727676e-02
1.009253815726338e+11  8.0908906782372447e-01 -5.8634118367665231e-02 -3.9726640221024657e-02 -5.7763082543129718e-01 -3.9726640221024671e-02 -5.7763082543129740e-01  8.0908906782372447e-01 -5.8634118367665231e-02
1.009718747824129e+11  8.0903607116069631e-01 -5.8999188663415886e-02 -3.9994701162241138e-02 -5.7764940249789420e-01 -3.9994701162241124e-02 -5.7764940249789409e-01  8.0903607116069609e-01 -5.8999188663415865e-02
1.010183894101797e+11  8.0898270756622137e-01 -5.9364425322166722e-02 -4.0262962347298176e-02 -5.7766809568983202e-01 -4.0262962347298176e-02 -5.7766809568983202e-01  8.0898270756622137e-01 -5.9364425322166722e-02
1.010649254658003e+11  8.0892897642593864e-01 -5.9729828390799863e-02 -4.0531424429298628e-02 -5.7768690509628740e-01 -4.0531424429298614e-02 -5.7768690509628728e-01  8.0892897642593842e-01 -5.9729828390799863e-02
1.011114829591460e+11  8.0887487712379458e-01 -6.0095397915909475e-02 -4.0800088063063442e-02 -5.7770583080598281e-01 -4.0800088063063449e-02 -5.7770583080598292e-01  8.0887487712379469e-01 -6.0095397915909482e-02
1.011580619000931e+11  8.0882040904203978e-01 -6.0461133943789394e-02 -4.1068953905129692e-02 -5.7772487290718111e-01 -4.1068953905129713e-02 -5.7772487290718111e-01  8.0882040904203978e-01 -6.0461133943789394e-02
1.012046622985209e+11  8.0876557156122508e-01 -6.0827036520418654e-02 -4.1338022613747437e-02 -5.7774403148768294e-01 -4.1338022613747444e-02 -5.7774403148768294e-01  8.0876557156122508e-01 -6.0827036520418654e-02
1.012512841643146e+11  8.0871036406019281e-01 -6.1193105691480822e-02 -4.1607294848901070e-02 -5.7776330663482389e-01 -4.1607294848901064e-02 -5.7776330663482378e-01  8.0871036406019303e-01 -6.1193105691480829e-02
1.012979275073641e+11  8.0865478591607509e-01 -6.1559341502347965e-02 -4.1876771272304832e-02 -5.7778269843547114e-01 -4.1876771272304818e-02 -5.7778269843547103e-01  8.0865478591607509e-01 -6.1559341502347965e-02
1.013445923375623e+11  8.0859883650428621e-01 -6.1925743998069896e-02 -4.2146452547402506e-02 -5.7780220697602014e-01 -4.2146452547402513e-02 -5.7780220697602003e-01  8.0859883650428632e-01 -6.1925743998069896e-02
1.013912786648082e+11  8.0854251519851850e-01 -6.2292313223389364e-02 -4.2416339339385822e-02 -5.7782183234239159e-01 -4.2416339339385822e-02 -5.7782183234239159e-01  8.0854251519851839e-01 -6.2292313223389364e-02
1.014379864990053e+11  8.0848582137073577e-01 -6.2659049222730842e-02 -4.2686432315193638e-02 -5.7784157462002894e-01 -4.2686432315193638e-02 -5.7784157462002894e-01  8.0848582137073566e-01 -6.2659049222730814e-02
1.014847158500602e+11  8.0842875439117068e-01 -6.3025952040185712e-02 -4.2956732143508640e-02 -5.7786143389389311e-01 -4.2956732143508654e-02 -5.7786143389389333e-01  8.0842875439117090e-01 -6.3025952040185712e-02
1.015314667278856e+11  8.0837131362831560e-01 -6.3393021719529499e-02 -4.3227239494777359e-02 -5.7788141024846151e-01 -4.3227239494777366e-02 -5.7788141024846151e-01  8.0837131362831560e-01 -6.3393021719529513e-02
1.015782391423986e+11  8.0831349844891964e-01 -6.3760258304208686e-02 -4.3497955041208146e-02 -5.7790150376772376e-01 -4.3497955041208146e-02 -5.7790150376772365e-01  8.0831349844891953e-01 -6.3760258304208672e-02
1.016250331035196e+11  8.0825530821798353e-01 -6.4127661837328390e-02 -4.3768879456769563e-02 -5.7792171453517760e-01 -4.3768879456769570e-02 -5.7792171453517782e-01  8.0825530821798341e-01 -6.4127661837328362e-02
1.016718486211749e+11  8.0819674229875260e-01 -6.4495232361667376e-02 -4.4040013417209090e-02 -5.7794204263382731e-01 -4.4040013417209090e-02 -5.7794204263382731e-01  8.0819674229875271e-01 -6.4495232361667404e-02
1.017186857052954e+11  8.0813780005271185e-01 -6.4862969919667002e-02 -4.4311357600052552e-02 -5.7796248814617912e-01 -4.4311357600052566e-02 -5.7796248814617923e-01  8.0813780005271185e-01 -6.4862969919667002e-02
1.017655443658152e+11  8.0807848083958234e-01 -6.5230874553415794e-02 -4.4582912684600462e-02 -5.7798305115423820e-01 -4.4582912684600476e-02 -5.7798305115423831e-01  8.0807848083958256e-01 -6.5230874553415807e-02
1.018124246126743e+11  8.0801878401731286e-01 -6.5598946304667394e-02 -4.4854679351948930e-02 -5.7800373173950503e-01 -4.4854679351948930e-02 -5.7800373173950492e-01  8.0801878401731286e-01 -6.5598946304667380e-02
1.018593264558174e+11  8.0795870894207578e-01 -6.5967185214827001e-02 -4.5126658284987395e-02 -5.7802452998297282e-01 -4.5126658284987381e-02 -5.7802452998297282e-01  8.0795870894207555e-01 -6.5967185214826973e-02
1.019062499051922e+11  8.0789825496826240e-01 -6.6335591324937979e-02 -4.5398850168396426e-02 -5.7804544596512264e-01 -4.5398850168396447e-02 -5.7804544596512286e-01  8.0789825496826240e-01 -6.6335591324937979e-02
1.019531949707526e+11  8.0783742144847670e-01 -6.6704164675698813e-02 -4.5671255688668137e-02 -5.7806647976592218e-01 -4.5671255688668137e-02 -5.7806647976592218e-01  8.0783742144847659e-01 -6.6704164675698785e-02
1.020001616624569e+11  8.0777620773352821e-01 -6.7072905307448874e-02 -4.5943875534103451e-02 -5.7808763146481967e-01 -4.5943875534103465e-02 -5.7808763146481990e-01  8.0777620773352821e-01 -6.7072905307448874e-02
1.020471499902668e+11  8.0771461317242998e-01 -6.7441813260155983e-02 -4.6216710394810741e-02 -5.7810890114074232e-01 -4.6216710394810748e-02 -5.7810890114074232e-01  8.0771461317242998e-01 -6.7441813260155983e-02
1.020941599641496e+11  8.0765263711238966e-01 -6.7810888573432454e-02 -4.6489760962725606e-02 -5.7813028887209228e-01 -4.6489760962725613e-02 -5.7813028887209228e-01  8.0765263711238966e-01 -6.7810888573432454e-02
1.021411915940777e+11  8.0759027889880541e-01 -6.8180131286521964e-02 -4.6763027931609129e-02 -5.7815179473674294e-01 -4.6763027931609129e-02 -5.7815179473674294e-01  8.0759027889880541e-01 -6.8180131286521964e-02
1.021882448900263e+11  8.0752753787526155e-01 -6.8549541438285871e-02 -4.7036511997045553e-02 -5.7817341881203510e-01 -4.7036511997045546e-02 -5.7817341881203510e-01  8.0752753787526155e-01 -6.8549541438285871e-02
1.022353198619768e+11  8.0746441338351949e-01 -6.8919119067220022e-02 -4.7310213856462967e-02 -5.7819516117477465e-01 -4.7310213856462967e-02 -5.7819516117477465e-01  8.0746441338351971e-01 -6.8919119067220022e-02
1.022824165199150e+11  8.0740090476351500e-01 -6.9288864211439816e-02 -4.7584134209129977e-02 -5.7821702190122748e-01 -4.7584134209129991e-02 -5.7821702190122748e-01  8.0740090476351511e-01 -6.9288864211439830e-02
1.023295348738302e+11  8.0733701135335312e-01 -6.9658776908670283e-02 -4.7858273756156713e-02 -5.7823900106711656e-01 -4.7858273756156713e-02 -5.7823900106711679e-01  8.0733701135335301e-01 -6.9658776908670270e-02
1.023766749337179e+11  8.0727273248929832e-01 -7.0028857196261132e-02 -4.8132633200513850e-02 -5.7826109874761866e-01 -4.8132633200513829e-02 -5.7826109874761866e-01  8.0727273248929821e-01 -7.0028857196261105e-02
1.024238367095765e+11  8.0720806750577423e-01 -7.0399105111160321e-02 -4.8407213247021220e-02 -5.7828331501735997e-01 -4.8407213247021220e-02 -5.7828331501735997e-01  8.0720806750577445e-01 -7.0399105111160334e-02
1.024710202114103e+11  8.0714301573535496e-01 -7.0769520689931642e-02 -4.8682014602368977e-02 -5.7830564995041289e-01 -4.8682014602368963e-02 -5.7830564995041278e-01  8.0714301573535474e-01 -7.0769520689931628e-02
1.025182254492283e+11  8.0707757650875667e-01 -7.1140103968742305e-02 -4.8957037975116753e-02 -5.7832810362029252e-01 -4.8957037975116732e-02 -5.7832810362029230e-01  8.0707757650875689e-01 -7.1140103968742333e-02
1.025654524330426e+11  8.0701174915484020e-01 -7.1510854983348165e-02 -4.9232284075690629e-02 -5.7835067609995205e-01 -4.9232284075690615e-02 -5.7835067609995205e-01  8.0701174915484009e-01 -7.1510854983348138e-02
1.026127011728714e+11  8.0694553300059502e-01 -7.1881773769111243e-02 -4.9507753616404741e-02 -5.7837336746178003e-01 -4.9507753616404741e-02 -5.7837336746178003e-01  8.0694553300059513e-01 -7.1881773769111257e-02
1.026599716787375e+11  8.0687892737114109e-01 -7.2252860360986063e-02 -4.9783447311459124e-02 -5.7839617777759678e-01 -4.9783447311459145e-02 -5.7839617777759689e-01  8.0687892737114097e-01 -7.2252860360986063e-02
1.027072639606669e+11  8.0681193158972031e-01 -7.2624114793504585e-02 -5.0059365876937094e-02 -5.7841910711864875e-01 -5.0059365876937094e-02 -5.7841910711864875e-01  8.0681193158972020e-01 -7.2624114793504571e-02
1.027545780286917e+11  8.0674454497768999e-01 -7.2995537100793068e-02 -5.0335510030826043e-02 -5.7844215555560685e-01 -5.0335510030826029e-02 -5.7844215555560685e-01  8.0674454497769021e-01 -7.2995537100793081e-02
1.028019138928484e+11  8.0667676685451795e-01 -7.3367127316559547e-02 -5.0611880493016508e-02 -5.7846532315856181e-01 -5.0611880493016508e-02 -5.7846532315856181e-01  8.0667676685451817e-01 -7.3367127316559547e-02
1.028492715631770e+11  8.0660859653777828e-01 -7.3738885474078558e-02 -5.0888477985299371e-02 -5.7848860999701990e-01 -5.0888477985299378e-02 -5.7848860999701990e-01  8.0660859653777839e-01 -7.3738885474078586e-02
1.028966510497234e+11  8.0654003334314128e-01 -7.4110811606208069e-02 -5.1165303231386822e-02 -5.7851201613989955e-01 -5.1165303231386836e-02 -5.7851201613989955e-01  8.0654003334314128e-01 -7.4110811606208069e-02
1.029440523625380e+11  8.0647107658437134e-01 -7.4482905745375722e-02 -5.1442356956910691e-02 -5.7853554165552823e-01 -5.1442356956910684e-02 -5.7853554165552801e-01  8.0647107658437134e-01 -7.4482905745375735e-02
1.029914755116747e+11  8.0640172557332057e-01 -7.4855167923563976e-02 -5.1719639889419876e-02 -5.7855918661163563e-01 -5.1719639889419876e-02 -5.7855918661163563e-01  8.0640172557332057e-01 -7.4855167923563976e-02
1.030389205071932e+11  8.0633197961992087e-01 -7.5227598172327714e-02 -5.1997152758402221e-02 -5.7858295107535374e-01 -5.1997152758402207e-02 -5.7858295107535374e-01  8.0633197961992109e-01 -7.5227598172327728e-02
1.030863873591579e+11  8.0626183803217955e-01 -7.5600196522779842e-02 -5.2274896295282119e-02 -5.7860683511321043e-01 -5.2274896295282126e-02 -5.7860683511321043e-01  8.0626183803217943e-01 -7.5600196522779814e-02
1.031338760776365e+11  8.0619130011617357e-01 -7.5972963005576544e-02 -5.2552871233418522e-02 -5.7863083879112498e-01 -5.2552871233418515e-02 -5.7863083879112487e-01  8.0619130011617368e-01 -7.5972963005576558e-02
1.031813866727027e+11  8.0612036517604291e-01 -7.6345897650934538e-02 -5.2831078308126229e-02 -5.7865496217440593e-01 -5.2831078308126236e-02 -5.7865496217440615e-01  8.0612036517604291e-01 -7.6345897650934538e-02
1.032289191544349e+11  8.0604903251398363e-01 -7.6719000488616670e-02 -5.3109518256674010e-02 -5.7867920532774630e-01 -5.3109518256674003e-02 -5.7867920532774619e-01  8.0604903251398363e-01 -7.6719000488616670e-02
1.032764735329145e+11  8.0597730143024582e-01 -7.7092271547917549e-02 -5.3388191818282617e-02 -5.7870356831521819e-01 -5.3388191818282610e-02 -5.7870356831521796e-01  8.0597730143024582e-01 -7.7092271547917576e-02
1.033240498182293e+11  8.0590517122312155e-01 -7.7465710857679906e-02 -5.3667099734145844e-02 -5.7872805120027038e-01 -5.3667099734145837e-02 -5.7872805120027038e-01  8.0590517122312144e-01 -7.7465710857679906e-02
1.033716480204715e+11  8.0583264118894293e-01 -7.7839318446281364e-02 -5.3946242747429506e-02 -5.7875265404572473e-01 -5.3946242747429506e-02 -5.7875265404572473e-01  8.0583264118894316e-01 -7.7839318446281391e-02
1.034192681497366e+11  8.0575971062207785e-01 -7.8213094341618439e-02 -5.4225621603268215e-02 -5.7877737691376940e-01 -5.4225621603268194e-02 -5.7877737691376940e-01  8.0575971062207774e-01 -7.8213094341618425e-02
1.034669102161262e+11  8.0568637881491745e-01 -7.8587038571124104e-02 -5.4505237048787708e-02 -5.7880221986595726e-01 -5.4505237048787708e-02 -5.7880221986595726e-01  8.0568637881491745e-01 -7.8587038571124104e-02
1.035145742297465e+11  8.0561264505787467e-01 -7.8961151161752799e-02 -5.4785089833102381e-02 -5.7882718296320035e-01 -5.4785089833102388e-02 -5.7882718296320035e-01  8.0561264505787467e-01 -7.8961151161752771e-02
1.035622602007070e+11  8.0553850863937970e-01 -7.9335432139967618e-02 -5.5065180707314768e-02 -5.7885226626576614e-01 -5.5065180707314774e-02 -5.7885226626576614e-01  8.0553850863937970e-01 -7.9335432139967604e-02
1.036099681391232e+11  8.0546396884586913e-01 -7.9709881531754137e-02 -5.5345510424534956e-02 -5.7887746983327326e-01 -5.5345510424534949e-02 -5.7887746983327326e-01  8.0546396884586913e-01 -7.9709881531754123e-02
1.036576980551153e+11  8.0538902496178100e-01 -8.0084499362608447e-02 -5.5626079739880693e-02 -5.7890279372468711e-01 -5.5626079739880693e-02 -5.7890279372468711e-01  8.0538902496178100e-01 -8.0084499362608447e-02
1.037054499588069e+11  8.0531367626955386e-01 -8.0459285657520460e-02 -5.5906889410473955e-02 -5.7892823799831583e-01 -5.5906889410473962e-02 -5.7892823799831572e-01  8.0531367626955386e-01 -8.0459285657520474e-02
1.037532238603273e+11  8.0523792204961209e-01 -8.0834240440992106e-02 -5.6187940195463762e-02 -5.7895380271180519e-01 -5.6187940195463762e-02 -5.7895380271180519e-01  8.0523792204961198e-01 -8.0834240440992092e-02
1.038010197698108e+11  8.0516176158036556e-01 -8.1209363737021492e-02 -5.6469232856023580e-02 -5.7897948792213572e-01 -5.6469232856023607e-02 -5.7897948792213594e-01  8.0516176158036568e-01 -8.1209363737021492e-02
1.038488376973949e+11  8.0508519413820323e-01 -8.1584655569089726e-02 -5.6750768155350552e-02 -5.7900529368561682e-01 -5.6750768155350545e-02 -5.7900529368561682e-01  8.0508519413820323e-01 -8.1584655569089726e-02
1.038966776532230e+11  8.0500821899748376e-01 -8.1960115960175398e-02 -5.7032546858685758e-02 -5.7903122005788354e-01 -5.7032546858685737e-02 -5.7903122005788343e-01  8.0500821899748376e-01 -8.1960115960175398e-02
1.039445396474434e+11  8.0493083543053123e-01 -8.2335744932741151e-02 -5.7314569733313246e-02 -5.7905726709389138e-01 -5.7314569733313281e-02 -5.7905726709389160e-01  8.0493083543053134e-01 -8.2335744932741164e-02
1.039924236902076e+11  8.0485304270763014e-01 -8.2711542508718844e-02 -5.7596837548558509e-02 -5.7908343484791192e-01 -5.7596837548558551e-02 -5.7908343484791214e-01  8.0485304270762992e-01 -8.2711542508718830e-02
1.040403297916734e+11  8.0477484009701516e-01 -8.3087508709529273e-02 -5.7879351075812574e-02 -5.7910972337352928e-01 -5.7879351075812595e-02 -5.7910972337352951e-01  8.0477484009701528e-01 -8.3087508709529287e-02
1.040882579620020e+11  8.0469622686487019e-01 -8.3463643556050363e-02 -5.8162111088517404e-02 -5.7913613272363396e-01 -5.8162111088517397e-02 -5.7913613272363373e-01  8.0469622686487019e-01 -8.3463643556050376e-02
1.041362082113600e+11  8.0461720227531686e-01 -8.3839947068635595e-02 -5.8445118362189477e-02 -5.7916266295041974e-01 -5.8445118362189498e-02 -5.7916266295041996e-01  8.0461720227531675e-01 -8.3839947068635567e-02
1.041841805499191e+11  8.0453776559041046e-01 -8.4216419267101147e-02 -5.8728373674419444e-02 -5.7918931410537944e-01 -5.8728373674419451e-02 -5.7918931410537944e-01  8.0453776559041046e-01 -8.4216419267101147e-02
1.042321749878542e+11  8.0445791607013539e-01 -8.4593060170709417e-02 -5.9011877804869349e-02 -5.7921608623929777e-01 -5.9011877804869342e-02 -5.7921608623929777e-01  8.0445791607013539e-01 -8.4593060170709417e-02
1.042801915353462e+11  8.0437765297239516e-01 -8.4969869798186562e-02 -5.9295631535295434e-02 -5.7924297940225011e-01 -5.9295631535295421e-02 -5.7924297940225011e-01  8.0437765297239494e-01 -8.4969869798186534e-02
1.043282302025808e+11  8.0429697555300750e-01 -8.5346848167706019e-02 -5.9579635649545395e-02 -5.7926999364359566e-01 -5.9579635649545395e-02 -5.7926999364359555e-01  8.0429697555300761e-01 -8.5346848167706033e-02
