# Hz S RI R 50

4.999999999999999e+10  9.1859549609696234e-01  1.6305960672916323e-01  6.4407267943457497e-02 -3.4556472194173110e-01  6.4407267943457525e-02 -3.4556472194173121e-01  9.1859549609696234e-01  1.6305960672916320e-01
5.000346620265101e+10  9.1860522257525534e-01  1.6303389889311690e-01  6.4394707035100682e-02 -3.4555405687339991e-01  6.4394707035100682e-02 -3.4555405687339985e-01  9.1860522257525534e-01  1.6303389889311690e-01
5.000693264559344e+10  9.1861494750153050e-01  1.6300819057011806e-01  6.4382147132023768e-02 -3.4554339292736058e-01  6.4382147132023781e-02 -3.4554339292736058e-01  9.1861494750153050e-01  1.6300819057011809e-01
5.001039932884355e+10  9.1862467087582944e-01  1.6298248176009877e-01  6.4369588234056530e-02 -3.4553273010379981e-01  6.4369588234056557e-02 -3.4553273010379981e-01  9.1862467087582944e-01  1.6298248176009877e-01
5.001386625241840e+10  9.1863439269819624e-01  1.6295677246298562e-01  6.4357030341026147e-02 -3.4552206840290206e-01  6.4357030341026134e-02 -3.4552206840290201e-01  9.1863439269819624e-01  1.6295677246298562e-01
5.001733341633423e+10  9.1864411296867210e-01  1.6293106267871060e-01  6.4344473452762424e-02 -3.4551140782485384e-01  6.4344473452762466e-02 -3.4551140782485396e-01  9.1864411296867232e-01  1.6293106267871063e-01
5.002080082060812e+10  9.1865383168730153e-01  1.6290535240719997e-01  6.4331917569092387e-02 -3.4550074836983941e-01  6.4331917569092401e-02 -3.4550074836983946e-01  9.1865383168730130e-01  1.6290535240719994e-01
5.002426846525632e+10  9.1866354885412516e-01  1.6287964164838586e-01  6.4319362689845866e-02 -3.4549009003804543e-01  6.4319362689845894e-02 -3.4549009003804554e-01  9.1866354885412493e-01  1.6287964164838581e-01
5.002773635029591e+10  9.1867326446918751e-01  1.6285393040219442e-01  6.4306808814849875e-02 -3.4547943282965632e-01  6.4306808814849847e-02 -3.4547943282965632e-01  9.1867326446918740e-01  1.6285393040219437e-01
5.003120447574315e+10  9.1868297853252989e-01  1.6282821866855746e-01  6.4294255943934148e-02 -3.4546877674485876e-01  6.4294255943934162e-02 -3.4546877674485871e-01  9.1868297853252989e-01  1.6282821866855746e-01
5.003467284161490e+10  9.1869269104419560e-01  1.6280250644740263e-01  6.4281704076926377e-02 -3.4545812178383756e-01  6.4281704076926391e-02 -3.4545812178383756e-01  9.1869269104419571e-01  1.6280250644740266e-01
5.003814144792802e+10  9.1870240200422759e-01  1.6277679373865755e-01  6.4269153213654256e-02 -3.4544746794677766e-01  6.4269153213654256e-02 -3.4544746794677766e-01  9.1870240200422781e-01  1.6277679373865764e-01
5.004161029469880e+10  9.1871211141266740e-01  1.6275108054225379e-01  6.4256603353947422e-02 -3.4543681523386582e-01  6.4256603353947422e-02 -3.4543681523386577e-01  9.1871211141266740e-01  1.6275108054225379e-01
5.004507938194429e+10  9.1872181926955865e-01  1.6272536685811731e-01  6.4244054497632819e-02 -3.4542616364528639e-01  6.4244054497632833e-02 -3.4542616364528633e-01  9.1872181926955887e-01  1.6272536685811737e-01
5.004854870968077e+10  9.1873152557494331e-01  1.6269965268617992e-01  6.4231506644540179e-02 -3.4541551318122604e-01  6.4231506644540179e-02 -3.4541551318122604e-01  9.1873152557494353e-01  1.6269965268617997e-01
5.005201827792532e+10  9.1874123032886457e-01  1.6267393802636734e-01  6.4218959794496336e-02 -3.4540486384186925e-01  6.4218959794496308e-02 -3.4540486384186914e-01  9.1874123032886479e-01  1.6267393802636740e-01
5.005548808669419e+10  9.1875093353136361e-01  1.6264822287861117e-01  6.4206413947330912e-02 -3.4539421562740258e-01  6.4206413947330940e-02 -3.4539421562740258e-01  9.1875093353136383e-01  1.6264822287861119e-01
5.005895813600447e+10  9.1876063518248452e-01  1.6262250724283717e-01  6.4193869102870824e-02 -3.4538356853801050e-01  6.4193869102870824e-02 -3.4538356853801061e-01  9.1876063518248430e-01  1.6262250724283714e-01
5.006242842587244e+10  9.1877033528226826e-01  1.6259679111897687e-01  6.4181325260945679e-02 -3.4537292257387991e-01  6.4181325260945679e-02 -3.4537292257387991e-01  9.1877033528226826e-01  1.6259679111897687e-01
5.006589895631516e+10  9.1878003383075890e-01  1.6257107450695593e-01  6.4168782421382284e-02 -3.4536227773519518e-01  6.4168782421382325e-02 -3.4536227773519523e-01  9.1878003383075890e-01  1.6257107450695593e-01
5.006936972734892e+10  9.1878973082799753e-01  1.6254535740670573e-01  6.4156240584010205e-02 -3.4535163402214297e-01  6.4156240584010191e-02 -3.4535163402214297e-01  9.1878973082799731e-01  1.6254535740670567e-01
5.007284073899059e+10  9.1879942627402689e-01  1.6251963981815312e-01  6.4143699748656871e-02 -3.4534099143490837e-01  6.4143699748656899e-02 -3.4534099143490837e-01  9.1879942627402666e-01  1.6251963981815312e-01
5.007631199125706e+10  9.1880912016889027e-01  1.6249392174122490e-01  6.4131159915149671e-02 -3.4533034997367629e-01  6.4131159915149699e-02 -3.4533034997367640e-01  9.1880912016889027e-01  1.6249392174122490e-01
5.007978348416460e+10  9.1881881251262820e-01  1.6246820317585275e-01  6.4118621083318408e-02 -3.4531970963863362e-01  6.4118621083318408e-02 -3.4531970963863362e-01  9.1881881251262842e-01  1.6246820317585281e-01
5.008325521773032e+10  9.1882850330528509e-01  1.6244248412196155e-01  6.4106083252989429e-02 -3.4530907042996467e-01  6.4106083252989429e-02 -3.4530907042996467e-01  9.1882850330528487e-01  1.6244248412196152e-01
5.008672719197046e+10  9.1883819254690180e-01  1.6241676457948301e-01  6.4093546423992537e-02 -3.4529843234785662e-01  6.4093546423992537e-02 -3.4529843234785662e-01  9.1883819254690158e-01  1.6241676457948298e-01
5.009019940690213e+10  9.1884788023752162e-01  1.6239104454834191e-01  6.4081010596154259e-02 -3.4528779539249366e-01  6.4081010596154245e-02 -3.4528779539249366e-01  9.1884788023752162e-01  1.6239104454834191e-01
5.009367186254161e+10  9.1885756637718607e-01  1.6236532402846954e-01  6.4068475769304065e-02 -3.4527715956406257e-01  6.4068475769304079e-02 -3.4527715956406257e-01  9.1885756637718607e-01  1.6236532402846954e-01
5.009714455890599e+10  9.1886725096593824e-01  1.6233960301979103e-01  6.4055941943268635e-02 -3.4526652486274800e-01  6.4055941943268649e-02 -3.4526652486274811e-01  9.1886725096593802e-01  1.6233960301979097e-01
5.010061749601157e+10  9.1887693400381920e-01  1.6231388152223714e-01  6.4043409117877315e-02 -3.4525589128873679e-01  6.4043409117877315e-02 -3.4525589128873668e-01  9.1887693400381898e-01  1.6231388152223711e-01
5.010409067387521e+10  9.1888661549087214e-01  1.6228815953573483e-01  6.4030877292957603e-02 -3.4524525884221402e-01  6.4030877292957603e-02 -3.4524525884221402e-01  9.1888661549087214e-01  1.6228815953573486e-01
5.010756409251382e+10  9.1889629542713935e-01  1.6226243706020993e-01  6.4018346468336415e-02 -3.4523462752336459e-01  6.4018346468336429e-02 -3.4523462752336459e-01  9.1889629542713935e-01  1.6226243706020996e-01
5.011103775194369e+10  9.1890597381266215e-01  1.6223671409559401e-01  6.4005816643843638e-02 -3.4522399733237574e-01  6.4005816643843624e-02 -3.4522399733237574e-01  9.1890597381266215e-01  1.6223671409559401e-01
5.011451165218192e+10  9.1891565064748393e-01  1.6221099064181121e-01  6.3993287819305286e-02 -3.4521336826943161e-01  6.3993287819305300e-02 -3.4521336826943161e-01  9.1891565064748393e-01  1.6221099064181121e-01
5.011798579324477e+10  9.1892532593164566e-01  1.6218526669879305e-01  6.3980759994551176e-02 -3.4520274033471959e-01  6.3980759994551176e-02 -3.4520274033471959e-01  9.1892532593164566e-01  1.6218526669879305e-01
5.012146017514938e+10  9.1893499966519043e-01  1.6215954226646354e-01  6.3968233169407446e-02 -3.4519211352842361e-01  6.3968233169407432e-02 -3.4519211352842361e-01  9.1893499966519043e-01  1.6215954226646354e-01
5.012493479791202e+10  9.1894467184815953e-01  1.6213381734475391e-01  6.3955707343703663e-02 -3.4518148785073116e-01  6.3955707343703649e-02 -3.4518148785073116e-01  9.1894467184815953e-01  1.6213381734475391e-01
5.012840966154979e+10  9.1895434248059593e-01  1.6210809193358827e-01  6.3943182517265953e-02 -3.4517086330182634e-01  6.3943182517265940e-02 -3.4517086330182634e-01  9.1895434248059593e-01  1.6210809193358827e-01
5.013188476607899e+10  9.1896401156254059e-01  1.6208236603289769e-01  6.3930658689923980e-02 -3.4516023988189648e-01  6.3930658689923994e-02 -3.4516023988189642e-01  9.1896401156254059e-01  1.6208236603289766e-01
5.013536011151653e+10  9.1897367909403638e-01  1.6205663964260811e-01  6.3918135861504827e-02 -3.4514961759112661e-01  6.3918135861504827e-02 -3.4514961759112661e-01  9.1897367909403660e-01  1.6205663964260816e-01
5.013883569787929e+10  9.1898334507512558e-01  1.6203091276264528e-01  6.3905614031835353e-02 -3.4513899642970169e-01  6.3905614031835353e-02 -3.4513899642970169e-01  9.1898334507512558e-01  1.6203091276264528e-01
5.014231152518359e+10  9.1899300950584917e-01  1.6200518539293976e-01  6.3893093200744974e-02 -3.4512837639780902e-01  6.3893093200744946e-02 -3.4512837639780891e-01  9.1899300950584917e-01  1.6200518539293976e-01
5.014578759344653e+10  9.1900267238625033e-01  1.6197945753341561e-01  6.3880573368059843e-02 -3.4511775749563278e-01  6.3880573368059843e-02 -3.4511775749563278e-01  9.1900267238625044e-01  1.6197945753341567e-01
5.014926390268440e+10  9.1901233371636970e-01  1.6195372918400375e-01  6.3868054533609511e-02 -3.4510713972336038e-01  6.3868054533609525e-02 -3.4510713972336038e-01  9.1901233371636981e-01  1.6195372918400378e-01
5.015274045291432e+10  9.1902199349625069e-01  1.6192800034462809e-01  6.3855536697220050e-02 -3.4509652308117628e-01  6.3855536697220036e-02 -3.4509652308117622e-01  9.1902199349625069e-01  1.6192800034462809e-01
5.015621724415260e+10  9.1903165172593393e-01  1.6190227101521912e-01  6.3843019858720776e-02 -3.4508590756926755e-01  6.3843019858720790e-02 -3.4508590756926755e-01  9.1903165172593382e-01  1.6190227101521912e-01
5.015969427641633e+10  9.1904130840546283e-01  1.6187654119570083e-01  6.3830504017937870e-02 -3.4507529318781865e-01  6.3830504017937884e-02 -3.4507529318781877e-01  9.1904130840546283e-01  1.6187654119570083e-01
5.016317154972183e+10  9.1905096353487770e-01  1.6185081088600325e-01  6.3817989174700482e-02 -3.4506467993701684e-01  6.3817989174700482e-02 -3.4506467993701695e-01  9.1905096353487747e-01  1.6185081088600320e-01
5.016664906408601e+10  9.1906061711422071e-01  1.6182508008605204e-01  6.3805475328835556e-02 -3.4505406781704717e-01  6.3805475328835543e-02 -3.4505406781704717e-01  9.1906061711422071e-01  1.6182508008605204e-01
5.017012681952579e+10  9.1907026914353485e-01  1.6179934879577273e-01  6.3792962480170065e-02 -3.4504345682809495e-01  6.3792962480170079e-02 -3.4504345682809506e-01  9.1907026914353507e-01  1.6179934879577276e-01
5.017360481605746e+10  9.1907991962286051e-01  1.6177361701509552e-01  6.3780450628533158e-02 -3.4503284697034731e-01  6.3780450628533158e-02 -3.4503284697034731e-01  9.1907991962286073e-01  1.6177361701509557e-01
5.017708305369815e+10  9.1908956855224100e-01  1.6174788474394394e-01  6.3767939773750851e-02 -3.4502223824398870e-01  6.3767939773750837e-02 -3.4502223824398870e-01  9.1908956855224078e-01  1.6174788474394389e-01
5.018056153246417e+10  9.1909921593171673e-01  1.6172215198224810e-01  6.3755429915652362e-02 -3.4501163064920654e-01  6.3755429915652348e-02 -3.4501163064920648e-01  9.1909921593171651e-01  1.6172215198224804e-01
5.018404025237263e+10  9.1910886176133033e-01  1.6169641872993182e-01  6.3742921054063789e-02 -3.4500102418618528e-01  6.3742921054063789e-02 -3.4500102418618517e-01  9.1910886176133033e-01  1.6169641872993182e-01
5.018751921343987e+10  9.1911850604112266e-01  1.6167068498692488e-01  6.3730413188814145e-02 -3.4499041885511217e-01  6.3730413188814131e-02 -3.4499041885511206e-01  9.1911850604112288e-01  1.6167068498692494e-01
5.019099841568298e+10  9.1912814877113658e-01  1.6164495075315088e-01  6.3717906319729511e-02 -3.4497981465617150e-01  6.3717906319729525e-02 -3.4497981465617150e-01  9.1912814877113669e-01  1.6164495075315091e-01
5.019447785911829e+10  9.1913778995141304e-01  1.6161921602853960e-01  6.3705400446638832e-02 -3.4496921158955091e-01  6.3705400446638846e-02 -3.4496921158955091e-01  9.1913778995141304e-01  1.6161921602853957e-01
5.019795754376292e+10  9.1914742958199414e-01  1.6159348081301472e-01  6.3692895569368413e-02 -3.4495860965543501e-01  6.3692895569368399e-02 -3.4495860965543501e-01  9.1914742958199436e-01  1.6159348081301475e-01
5.020143746963321e+10  9.1915706766292138e-01  1.6156774510650562e-01  6.3680391687746821e-02 -3.4494800885401078e-01  6.3680391687746848e-02 -3.4494800885401078e-01  9.1915706766292116e-01  1.6156774510650562e-01
5.020491763674605e+10  9.1916670419423618e-01  1.6154200890893755e-01  6.3667888801601152e-02 -3.4493740918546356e-01  6.3667888801601139e-02 -3.4493740918546356e-01  9.1916670419423596e-01  1.6154200890893752e-01
5.020839804511838e+10  9.1917633917598085e-01  1.6151627222023535e-01  6.3655386910757977e-02 -3.4492681064997888e-01  6.3655386910757950e-02 -3.4492681064997882e-01  9.1917633917598085e-01  1.6151627222023535e-01
5.021187869476653e+10  9.1918597260819568e-01  1.6149053504032831e-01  6.3642886015046196e-02 -3.4491621324774363e-01  6.3642886015046196e-02 -3.4491621324774363e-01  9.1918597260819568e-01  1.6149053504032831e-01
5.021535958570761e+10  9.1919560449092408e-01  1.6146479736914018e-01  6.3630386114291865e-02 -3.4490561697894284e-01  6.3630386114291865e-02 -3.4490561697894284e-01  9.1919560449092430e-01  1.6146479736914021e-01
5.021884071795797e+10  9.1920523482420624e-01  1.6143905920659993e-01  6.3617887208323773e-02 -3.4489502184376347e-01  6.3617887208323814e-02 -3.4489502184376358e-01  9.1920523482420624e-01  1.6143905920659993e-01
5.022232209153472e+10  9.1921486360808413e-01  1.6141332055263119e-01  6.3605389296968032e-02 -3.4488442784239060e-01  6.3605389296968018e-02 -3.4488442784239060e-01  9.1921486360808413e-01  1.6141332055263119e-01
5.022580370645420e+10  9.1922449084259894e-01  1.6138758140716261e-01  6.3592892380053140e-02 -3.4487383497501106e-01  6.3592892380053126e-02 -3.4487383497501106e-01  9.1922449084259894e-01  1.6138758140716261e-01
5.022928556273354e+10  9.1923411652779341e-01  1.6136184177011781e-01  6.3580396457405208e-02 -3.4486324324180995e-01  6.3580396457405208e-02 -3.4486324324180995e-01  9.1923411652779319e-01  1.6136184177011775e-01
5.023276766038906e+10  9.1924374066370684e-01  1.6133610164142584e-01  6.3567901528853082e-02 -3.4485265264297432e-01  6.3567901528853069e-02 -3.4485265264297432e-01  9.1924374066370695e-01  1.6133610164142589e-01
5.023624999943771e+10  9.1925336325038265e-01  1.6131036102101123e-01  6.3555407594223221e-02 -3.4484206317868976e-01  6.3555407594223221e-02 -3.4484206317868976e-01  9.1925336325038287e-01  1.6131036102101126e-01
5.023973257989641e+10  9.1926298428786157e-01  1.6128461990879853e-01  6.3542914653342344e-02 -3.4483147484914151e-01  6.3542914653342331e-02 -3.4483147484914145e-01  9.1926298428786180e-01  1.6128461990879855e-01
5.024321540178151e+10  9.1927260377618480e-01  1.6125887830471666e-01  6.3530422706039036e-02 -3.4482088765451691e-01  6.3530422706039064e-02 -3.4482088765451696e-01  9.1927260377618480e-01  1.6125887830471664e-01
5.024669846511014e+10  9.1928222171539453e-01  1.6123313620868851e-01  6.3517931752139156e-02 -3.4481030159500076e-01  6.3517931752139128e-02 -3.4481030159500070e-01  9.1928222171539442e-01  1.6123313620868848e-01
5.025018176989863e+10  9.1929183810553095e-01  1.6120739362064293e-01  6.3505441791471454e-02 -3.4479971667078041e-01  6.3505441791471426e-02 -3.4479971667078030e-01  9.1929183810553117e-01  1.6120739362064299e-01
5.025366531616412e+10  9.1930145294663690e-01  1.6118165054050287e-01  6.3492952823861651e-02 -3.4478913288204066e-01  6.3492952823861651e-02 -3.4478913288204061e-01  9.1930145294663712e-01  1.6118165054050287e-01
5.025714910392297e+10  9.1931106623875214e-01  1.6115590696819687e-01  6.3480464849138385e-02 -3.4477855022896864e-01  6.3480464849138399e-02 -3.4477855022896864e-01  9.1931106623875214e-01  1.6115590696819687e-01
5.026063313319231e+10  9.1932067798191941e-01  1.6113016290364793e-01  6.3467977867127531e-02 -3.4476796871174953e-01  6.3467977867127517e-02 -3.4476796871174947e-01  9.1932067798191941e-01  1.6113016290364793e-01
5.026411740398846e+10  9.1933028817617879e-01  1.6110441834678468e-01  6.3455491877657644e-02 -3.4475738833057068e-01  6.3455491877657658e-02 -3.4475738833057068e-01  9.1933028817617901e-01  1.6110441834678471e-01
5.026760191632840e+10  9.1933989682157236e-01  1.6107867329753112e-01  6.3443006880555125e-02 -3.4474680908561728e-01  6.3443006880555111e-02 -3.4474680908561722e-01  9.1933989682157236e-01  1.6107867329753109e-01
5.027108667022906e+10  9.1934950391814141e-01  1.6105292775581104e-01  6.3430522875646267e-02 -3.4473623097707484e-01  6.3430522875646295e-02 -3.4473623097707495e-01  9.1934950391814141e-01  1.6105292775581107e-01
5.027457166570677e+10  9.1935910946592647e-01  1.6102718172155356e-01  6.3418039862759956e-02 -3.4472565400513105e-01  6.3418039862759942e-02 -3.4472565400513100e-01  9.1935910946592625e-01  1.6102718172155353e-01
5.027805690277870e+10  9.1936871346496996e-01  1.6100143519468071e-01  6.3405557841721610e-02 -3.4471507816997055e-01  6.3405557841721624e-02 -3.4471507816997055e-01  9.1936871346496996e-01  1.6100143519468069e-01
5.028154238146119e+10  9.1937831591531149e-01  1.6097568817512092e-01  6.3393076812359797e-02 -3.4470450347178072e-01  6.3393076812359811e-02 -3.4470450347178083e-01  9.1937831591531127e-01  1.6097568817512087e-01
5.028502810177139e+10  9.1938791681699372e-01  1.6094994066279672e-01  6.3380596774500128e-02 -3.4469392991074660e-01  6.3380596774500156e-02 -3.4469392991074654e-01  9.1938791681699350e-01  1.6094994066279666e-01
5.028851406372565e+10  9.1939751617005627e-01  1.6092419265763622e-01  6.3368117727971116e-02 -3.4468335748705542e-01  6.3368117727971116e-02 -3.4468335748705542e-01  9.1939751617005627e-01  1.6092419265763622e-01
5.029200026734111e+10  9.1940711397454233e-01  1.6089844415956214e-01  6.3355639672598441e-02 -3.4467278620089242e-01  6.3355639672598441e-02 -3.4467278620089242e-01  9.1940711397454256e-01  1.6089844415956214e-01
5.029548671263415e+10  9.1941671023049076e-01  1.6087269516850200e-01  6.3343162608210435e-02 -3.4466221605244463e-01  6.3343162608210421e-02 -3.4466221605244463e-01  9.1941671023049076e-01  1.6087269516850200e-01
5.029897339962190e+10  9.1942630493794508e-01  1.6084694568437849e-01  6.3330686534632613e-02 -3.4465164704189727e-01  6.3330686534632627e-02 -3.4465164704189727e-01  9.1942630493794486e-01  1.6084694568437843e-01
5.030246032832072e+10  9.1943589809694415e-01  1.6082119570711953e-01  6.3318211451693529e-02 -3.4464107916943776e-01  6.3318211451693543e-02 -3.4464107916943776e-01  9.1943589809694404e-01  1.6082119570711950e-01
5.030594749874757e+10  9.1944548970752948e-01  1.6079544523664863e-01  6.3305737359219350e-02 -3.4463051243525161e-01  6.3305737359219336e-02 -3.4463051243525161e-01  9.1944548970752971e-01  1.6079544523664863e-01
5.030943491091942e+10  9.1945507976974361e-01  1.6076969427288951e-01  6.3293264257036283e-02 -3.4461994683952440e-01  6.3293264257036283e-02 -3.4461994683952440e-01  9.1945507976974339e-01  1.6076969427288945e-01
5.031292256485260e+10  9.1946466828362594e-01  1.6074394281576984e-01  6.3280792144972661e-02 -3.4460938238244371e-01  6.3280792144972647e-02 -3.4460938238244365e-01  9.1946466828362594e-01  1.6074394281576987e-01
5.031641046056430e+10  9.1947425524921811e-01  1.6071819086521164e-01  6.3268321022853999e-02 -3.4459881906419432e-01  6.3268321022854013e-02 -3.4459881906419432e-01  9.1947425524921833e-01  1.6071819086521169e-01
5.031989859807086e+10  9.1948384066656086e-01  1.6069243842114281e-01  6.3255850890508600e-02 -3.4458825688496397e-01  6.3255850890508586e-02 -3.4458825688496392e-01  9.1948384066656064e-01  1.6069243842114275e-01
