# Hz S RI R 50

1.000000000000000e+11  9.1842236775886255e-01 -1.6565289911033049e-01 -6.2777739305318186e-02 -3.4687963767277841e-01 -6.2777739305318200e-02 -3.4687963767277841e-01  9.1842236775886277e-01 -1.6565289911033049e-01
1.000460669150362e+11  9.1829132167463390e-01 -1.6599648766776917e-01 -6.2946849054236031e-02 -3.4702436197754788e-01 -6.2946849054236018e-02 -3.4702436197754788e-01  9.1829132167463379e-01 -1.6599648766776912e-01
1.000921550516794e+11  9.1815981244621803e-01 -1.6634046697430765e-01 -6.3116377795354991e-02 -3.4716948404050130e-01 -6.3116377795354991e-02 -3.4716948404050130e-01  9.1815981244621803e-01 -1.6634046697430765e-01
1.001382644197050e+11  9.1802783836898594e-01 -1.6668483792673505e-01 -6.3286327253788480e-02 -3.4731500469951859e-01 -6.3286327253788507e-02 -3.4731500469951870e-01  9.1802783836898594e-01 -1.6668483792673505e-01
1.001843950288940e+11  9.1789539773006856e-01 -1.6702960142368381e-01 -6.3456699162847255e-02 -3.4746092479423746e-01 -6.3456699162847255e-02 -3.4746092479423746e-01  9.1789539773006856e-01 -1.6702960142368384e-01
1.002305468890319e+11  9.1776248880831679e-01 -1.6737475836561666e-01 -6.3627495264079945e-02 -3.4760724516604585e-01 -6.3627495264079958e-02 -3.4760724516604585e-01  9.1776248880831657e-01 -1.6737475836561660e-01
1.002767200099076e+11  9.1762910987425583e-01 -1.6772030965481721e-01 -6.3798717307315400e-02 -3.4775396665807767e-01 -6.3798717307315400e-02 -3.4775396665807767e-01  9.1762910987425583e-01 -1.6772030965481721e-01
1.003229144013156e+11  9.1749525919003450e-01 -1.6806625619540652e-01 -6.3970367050718485e-02 -3.4790109011521791e-01 -6.3970367050718485e-02 -3.4790109011521791e-01  9.1749525919003427e-01 -1.6806625619540649e-01
1.003691300730551e+11  9.1736093500937876e-01 -1.6841259889333049e-01 -6.4142446260831890e-02 -3.4804861638409657e-01 -6.4142446260831848e-02 -3.4804861638409651e-01  9.1736093500937876e-01 -1.6841259889333046e-01
1.004153670349285e+11  9.1722613557754995e-01 -1.6875933865635054e-01 -6.4314956712619359e-02 -3.4819654631308300e-01 -6.4314956712619345e-02 -3.4819654631308300e-01  9.1722613557754973e-01 -1.6875933865635048e-01
1.004616252967437e+11  9.1709085913128996e-01 -1.6910647639405882e-01 -6.4487900189522107e-02 -3.4834488075229164e-01 -6.4487900189522107e-02 -3.4834488075229164e-01  9.1709085913128996e-01 -1.6910647639405882e-01
1.005079048683136e+11  9.1695510389877710e-01 -1.6945401301786678e-01 -6.4661278483501783e-02 -3.4849362055357491e-01 -6.4661278483501783e-02 -3.4849362055357491e-01  9.1695510389877710e-01 -1.6945401301786675e-01
1.005542057594539e+11  9.1681886809958013e-01 -1.6980194944099386e-01 -6.4835093395084253e-02 -3.4864276657051779e-01 -6.4835093395084253e-02 -3.4864276657051779e-01  9.1681886809957991e-01 -1.6980194944099383e-01
1.006005279799865e+11  9.1668214994460373e-01 -1.7015028657848402e-01 -6.5009346733417420e-02 -3.4879231965844260e-01 -6.5009346733417420e-02 -3.4879231965844276e-01  9.1668214994460351e-01 -1.7015028657848399e-01
1.006468715397374e+11  9.1654494763604344e-01 -1.7049902534719374e-01 -6.5184040316315070e-02 -3.4894228067440319e-01 -6.5184040316315042e-02 -3.4894228067440308e-01  9.1654494763604344e-01 -1.7049902534719374e-01
1.006932364485362e+11  9.1640725936734058e-01 -1.7084816666577815e-01 -6.5359175970300457e-02 -3.4909265047717625e-01 -6.5359175970300484e-02 -3.4909265047717625e-01  9.1640725936734080e-01 -1.7084816666577821e-01
1.007396227162182e+11  9.1626908332312418e-01 -1.7119771145471152e-01 -6.5534755530666983e-02 -3.4924342992726959e-01 -6.5534755530667010e-02 -3.4924342992726959e-01  9.1626908332312407e-01 -1.7119771145471147e-01
1.007860303526231e+11  9.1613041767916659e-01 -1.7154766063626986e-01 -6.5710780841520849e-02 -3.4939461988691234e-01 -6.5710780841520877e-02 -3.4939461988691234e-01  9.1613041767916636e-01 -1.7154766063626981e-01
1.008324593675940e+11  9.1599126060233549e-01 -1.7189801513452263e-01 -6.5887253755828004e-02 -3.4954622122004964e-01 -6.5887253755827976e-02 -3.4954622122004952e-01  9.1599126060233549e-01 -1.7189801513452263e-01
1.008789097709802e+11  9.1585161025053674e-01 -1.7224877587535006e-01 -6.6064176135474759e-02 -3.4969823479234829e-01 -6.6064176135474717e-02 -3.4969823479234818e-01  9.1585161025053674e-01 -1.7224877587535006e-01
1.009253815726338e+11  9.1571146477267140e-01 -1.7259994378641416e-01 -6.6241549851305509e-02 -3.4985066147118266e-01 -6.6241549851305537e-02 -3.4985066147118277e-01  9.1571146477267140e-01 -1.7259994378641416e-01
1.009718747824129e+11  9.1557082230857989e-01 -1.7295151979717993e-01 -6.6419376783185519e-02 -3.5000350212564130e-01 -6.6419376783185533e-02 -3.5000350212564130e-01  9.1557082230857967e-01 -1.7295151979717990e-01
1.010183894101797e+11  9.1542968098898869e-01 -1.7330350483889989e-01 -6.6597658820046701e-02 -3.5015675762651871e-01 -6.6597658820046687e-02 -3.5015675762651871e-01  9.1542968098898891e-01 -1.7330350483889995e-01
1.010649254658003e+11  9.1528803893546828e-01 -1.7365589984460256e-01 -6.6776397859934486e-02 -3.5031042884630836e-01 -6.6776397859934500e-02 -3.5031042884630847e-01  9.1528803893546851e-01 -1.7365589984460256e-01
1.011114829591460e+11  9.1514589426036996e-01 -1.7400870574910837e-01 -6.6955595810069810e-02 -3.5046451665920691e-01 -6.6955595810069810e-02 -3.5046451665920680e-01  9.1514589426036996e-01 -1.7400870574910837e-01
1.011580619000931e+11  9.1500324506677899e-01 -1.7436192348901525e-01 -6.7135254586895995e-02 -3.5061902194110622e-01 -6.7135254586896009e-02 -3.5061902194110622e-01  9.1500324506677899e-01 -1.7436192348901525e-01
1.012046622985209e+11  9.1486008944846464e-01 -1.7471555400268599e-01 -6.7315376116126757e-02 -3.5077394556958541e-01 -6.7315376116126785e-02 -3.5077394556958552e-01  9.1486008944846442e-01 -1.7471555400268593e-01
1.012512841643146e+11  9.1471642548982079e-01 -1.7506959823026436e-01 -6.7495962332809051e-02 -3.5092928842391596e-01 -6.7495962332809037e-02 -3.5092928842391596e-01  9.1471642548982079e-01 -1.7506959823026433e-01
1.012979275073641e+11  9.1457225126581632e-01 -1.7542405711365885e-01 -6.7677015181370315e-02 -3.5108505138505142e-01 -6.7677015181370315e-02 -3.5108505138505142e-01  9.1457225126581621e-01 -1.7542405711365885e-01
1.013445923375623e+11  9.1442756484194387e-01 -1.7577893159653313e-01 -6.7858536615669263e-02 -3.5124123533562163e-01 -6.7858536615669290e-02 -3.5124123533562157e-01  9.1442756484194387e-01 -1.7577893159653316e-01
1.013912786648082e+11  9.1428236427416087e-01 -1.7613422262431599e-01 -6.8040528599056960e-02 -3.5139784115993378e-01 -6.8040528599056932e-02 -3.5139784115993378e-01  9.1428236427416087e-01 -1.7613422262431599e-01
1.014379864990053e+11  9.1413664760883595e-01 -1.7648993114419245e-01 -6.8222993104428808e-02 -3.5155486974396688e-01 -6.8222993104428822e-02 -3.5155486974396699e-01  9.1413664760883595e-01 -1.7648993114419245e-01
1.014847158500602e+11  9.1399041288270055e-01 -1.7684605810508536e-01 -6.8405932114271983e-02 -3.5171232197536012e-01 -6.8405932114272011e-02 -3.5171232197536006e-01  9.1399041288270033e-01 -1.7684605810508530e-01
1.015314667278856e+11  9.1384365812278445e-01 -1.7720260445767294e-01 -6.8589347620731989e-02 -3.5187019874341835e-01 -6.8589347620731975e-02 -3.5187019874341835e-01  9.1384365812278445e-01 -1.7720260445767294e-01
1.015782391423986e+11  9.1369638134636644e-01 -1.7755957115437326e-01 -6.8773241625661938e-02 -3.5202850093910248e-01 -6.8773241625661938e-02 -3.5202850093910243e-01  9.1369638134636622e-01 -1.7755957115437324e-01
1.016250331035196e+11  9.1354858056092036e-01 -1.7791695914932976e-01 -6.8957616140673861e-02 -3.5218722945502007e-01 -6.8957616140673889e-02 -3.5218722945502007e-01  9.1354858056092059e-01 -1.7791695914932981e-01
1.016718486211749e+11  9.1340025376405209e-01 -1.7827476939842560e-01 -6.9142473187204304e-02 -3.5234638518542877e-01 -6.9142473187204304e-02 -3.5234638518542877e-01  9.1340025376405232e-01 -1.7827476939842563e-01
1.017186857052954e+11  9.1325139894344742e-01 -1.7863300285926936e-01 -6.9327814796566176e-02 -3.5250596902622716e-01 -6.9327814796566190e-02 -3.5250596902622727e-01  9.1325139894344720e-01 -1.7863300285926934e-01
1.017655443658152e+11  9.1310201407681779e-01 -1.7899166049117929e-01 -6.9513643009999904e-02 -3.5266598187494452e-01 -6.9513643009999890e-02 -3.5266598187494452e-01  9.1310201407681801e-01 -1.7899166049117934e-01
1.018124246126743e+11  9.1295209713183745e-01 -1.7935074325519773e-01 -6.9699959878740975e-02 -3.5282642463074432e-01 -6.9699959878740961e-02 -3.5282642463074432e-01  9.1295209713183723e-01 -1.7935074325519773e-01
1.018593264558174e+11  9.1280164606608782e-01 -1.7971025211407629e-01 -6.9886767464072519e-02 -3.5298729819441393e-01 -6.9886767464072547e-02 -3.5298729819441405e-01  9.1280164606608782e-01 -1.7971025211407629e-01
1.019062499051922e+11  9.1265065882700480e-01 -1.8007018803225983e-01 -7.0074067837377768e-02 -3.5314860346835514e-01 -7.0074067837377796e-02 -3.5314860346835525e-01  9.1265065882700480e-01 -1.8007018803225983e-01
1.019531949707526e+11  9.1249913335181199e-01 -1.8043055197590058e-01 -7.0261863080208667e-02 -3.5331034135658607e-01 -7.0261863080208695e-02 -3.5331034135658618e-01  9.1249913335181176e-01 -1.8043055197590052e-01
1.020001616624569e+11  9.1234706756746575e-01 -1.8079134491284182e-01 -7.0450155284339261e-02 -3.5347251276473118e-01 -7.0450155284339247e-02 -3.5347251276473118e-01  9.1234706756746575e-01 -1.8079134491284185e-01
1.020471499902668e+11  9.1219445939060118e-01 -1.8115256781260283e-01 -7.0638946551819515e-02 -3.5363511860001046e-01 -7.0638946551819501e-02 -3.5363511860001051e-01  9.1219445939060118e-01 -1.8115256781260280e-01
1.020941599641496e+11  9.1204130672746453e-01 -1.8151422164639164e-01 -7.0828238995045062e-02 -3.5379815977124235e-01 -7.0828238995045076e-02 -3.5379815977124235e-01  9.1204130672746453e-01 -1.8151422164639164e-01
1.021411915940777e+11  9.1188760747385567e-01 -1.8187630738708901e-01 -7.1018034736811772e-02 -3.5396163718883200e-01 -7.1018034736811758e-02 -3.5396163718883195e-01  9.1188760747385544e-01 -1.8187630738708896e-01
1.021882448900263e+11  9.1173335951507395e-01 -1.8223882600923186e-01 -7.1208335910370568e-02 -3.5412555176476057e-01 -7.1208335910370568e-02 -3.5412555176476057e-01  9.1173335951507373e-01 -1.8223882600923180e-01
1.022353198619768e+11  9.1157856072584953e-01 -1.8260177848902767e-01 -7.1399144659498953e-02 -3.5428990441258829e-01 -7.1399144659498967e-02 -3.5428990441258829e-01  9.1157856072584953e-01 -1.8260177848902767e-01
1.022824165199150e+11  9.1142320897028484e-01 -1.8296516580433464e-01 -7.1590463138555258e-02 -3.5445469604744045e-01 -7.1590463138555271e-02 -3.5445469604744057e-01  9.1142320897028473e-01 -1.8296516580433461e-01
1.023295348738302e+11  9.1126730210179885e-01 -1.8332898893464922e-01 -7.1782293512536954e-02 -3.5461992758599908e-01 -7.1782293512536940e-02 -3.5461992758599920e-01  9.1126730210179885e-01 -1.8332898893464922e-01
1.023766749337179e+11  9.1111083796305536e-01 -1.8369324886111718e-01 -7.1974637957151810e-02 -3.5478559994650294e-01 -7.1974637957151852e-02 -3.5478559994650305e-01  9.1111083796305559e-01 -1.8369324886111721e-01
1.024238367095765e+11  9.1095381438591105e-01 -1.8405794656650387e-01 -7.2167498658868595e-02 -3.5495171404873049e-01 -7.2167498658868609e-02 -3.5495171404873060e-01  9.1095381438591105e-01 -1.8405794656650387e-01
1.024710202114103e+11  9.1079622919134484e-01 -1.8442308303520794e-01 -7.2360877814990246e-02 -3.5511827081400177e-01 -7.2360877814990260e-02 -3.5511827081400182e-01  9.1079622919134484e-01 -1.8442308303520794e-01
1.025182254492283e+11  9.1063808018939796e-01 -1.8478865925324434e-01 -7.2554777633712195e-02 -3.5528527116516612e-01 -7.2554777633712195e-02 -3.5528527116516612e-01  9.1063808018939796e-01 -1.8478865925324434e-01
1.025654524330426e+11  9.1047936517911399e-01 -1.8515467620822557e-01 -7.2749200334179739e-02 -3.5545271602658918e-01 -7.2749200334179698e-02 -3.5545271602658912e-01  9.1047936517911399e-01 -1.8515467620822557e-01
1.026127011728714e+11  9.1032008194846892e-01 -1.8552113488937549e-01 -7.2944148146563290e-02 -3.5562060632415537e-01 -7.2944148146563317e-02 -3.5562060632415537e-01  9.1032008194846881e-01 -1.8552113488937549e-01
1.026599716787375e+11  9.1016022827430976e-01 -1.8588803628750949e-01 -7.3139623312116417e-02 -3.5578894298525371e-01 -7.3139623312116403e-02 -3.5578894298525365e-01  9.1016022827430965e-01 -1.8588803628750949e-01
1.027072639606669e+11  9.0999980192229413e-01 -1.8625538139501738e-01 -7.3335628083235627e-02 -3.5595772693876526e-01 -7.3335628083235627e-02 -3.5595772693876526e-01  9.0999980192229424e-01 -1.8625538139501738e-01
1.027545780286917e+11  9.0983880064681699e-01 -1.8662317120587338e-01 -7.3532164723535118e-02 -3.5612695911506320e-01 -7.3532164723535132e-02 -3.5612695911506320e-01  9.0983880064681688e-01 -1.8662317120587335e-01
1.028019138928484e+11  9.0967722219094982e-01 -1.8699140671561967e-01 -7.3729235507908247e-02 -3.5629664044600068e-01 -7.3729235507908233e-02 -3.5629664044600068e-01  9.0967722219094982e-01 -1.8699140671561967e-01
1.028492715631770e+11  9.0951506428637852e-01 -1.8736008892134520e-01 -7.3926842722586594e-02 -3.5646677186489534e-01 -7.3926842722586594e-02 -3.5646677186489534e-01  9.0951506428637841e-01 -1.8736008892134517e-01
1.028966510497234e+11  9.0935232465332860e-01 -1.8772921882169832e-01 -7.4124988665217773e-02 -3.5663735430653098e-01 -7.4124988665217814e-02 -3.5663735430653115e-01  9.0935232465332860e-01 -1.8772921882169830e-01
1.029440523625380e+11  9.0918900100050304e-01 -1.8809879741686661e-01 -7.4323675644926299e-02 -3.5680838870714277e-01 -7.4323675644926326e-02 -3.5680838870714277e-01  9.0918900100050304e-01 -1.8809879741686661e-01
1.029914755116747e+11  9.0902509102501927e-01 -1.8846882570855888e-01 -7.4522905982376139e-02 -3.5697987600440362e-01 -7.4522905982376139e-02 -3.5697987600440362e-01  9.0902509102501927e-01 -1.8846882570855888e-01
1.030389205071932e+11  9.0886059241233297e-01 -1.8883930470001234e-01 -7.4722682009847011e-02 -3.5715181713742211e-01 -7.4722682009846997e-02 -3.5715181713742206e-01  9.0886059241233286e-01 -1.8883930470001228e-01
1.030863873591579e+11  9.0869550283617451e-01 -1.8921023539597712e-01 -7.4923006071299772e-02 -3.5732421304673057e-01 -7.4923006071299786e-02 -3.5732421304673057e-01  9.0869550283617440e-01 -1.8921023539597706e-01
1.031338760776365e+11  9.0852981995848425e-01 -1.8958161880269336e-01 -7.5123880522437472e-02 -3.5749706467426817e-01 -7.5123880522437472e-02 -3.5749706467426812e-01  9.0852981995848425e-01 -1.8958161880269336e-01
1.031813866727027e+11  9.0836354142933629e-01 -1.8995345592790158e-01 -7.5325307730785343e-02 -3.5767037296338056e-01 -7.5325307730785371e-02 -3.5767037296338050e-01  9.0836354142933617e-01 -1.8995345592790155e-01
1.032289191544349e+11  9.0819666488687067e-01 -1.9032574778082273e-01 -7.5527290075755316e-02 -3.5784413885880478e-01 -7.5527290075755302e-02 -3.5784413885880473e-01  9.0819666488687067e-01 -1.9032574778082273e-01
1.032764735329145e+11  9.0802918795723175e-01 -1.9069849537213782e-01 -7.5729829948710040e-02 -3.5801836330665393e-01 -7.5729829948710012e-02 -3.5801836330665382e-01  9.0802918795723186e-01 -1.9069849537213782e-01
1.033240498182293e+11  9.0786110825448585e-01 -1.9107169971399623e-01 -7.5932929753043665e-02 -3.5819304725441520e-01 -7.5932929753043665e-02 -3.5819304725441509e-01  9.0786110825448596e-01 -1.9107169971399629e-01
1.033716480204715e+11  9.0769242338055678e-01 -1.9144536181999530e-01 -7.6136591904247569e-02 -3.5836819165093436e-01 -7.6136591904247541e-02 -3.5836819165093431e-01  9.0769242338055678e-01 -1.9144536181999530e-01
1.034192681497366e+11  9.0752313092515902e-01 -1.9181948270515919e-01 -7.6340818829975773e-02 -3.5854379744639986e-01 -7.6340818829975787e-02 -3.5854379744639986e-01  9.0752313092515891e-01 -1.9181948270515919e-01
1.034669102161262e+11  9.0735322846571509e-01 -1.9219406338594699e-01 -7.6545612970127491e-02 -3.5871986559233987e-01 -7.6545612970127477e-02 -3.5871986559233976e-01  9.0735322846571487e-01 -1.9219406338594699e-01
1.035145742297465e+11  9.0718271356729097e-01 -1.9256910488023202e-01 -7.6750976776914226e-02 -3.5889639704160697e-01 -7.6750976776914184e-02 -3.5889639704160692e-01  9.0718271356729097e-01 -1.9256910488023202e-01
1.035622602007070e+11  9.0701158378252633e-01 -1.9294460820727891e-01 -7.6956912714925829e-02 -3.5907339274836042e-01 -7.6956912714925829e-02 -3.5907339274836042e-01  9.0701158378252633e-01 -1.9294460820727891e-01
1.036099681391232e+11  9.0683983665155143e-01 -1.9332057438775155e-01 -7.7163423261215364e-02 -3.5925085366806364e-01 -7.7163423261215350e-02 -3.5925085366806364e-01  9.0683983665155155e-01 -1.9332057438775160e-01
1.036576980551153e+11  9.0666746970192025e-01 -1.9369700444369251e-01 -7.7370510905367187e-02 -3.5942878075746781e-01 -7.7370510905367174e-02 -3.5942878075746781e-01  9.0666746970192014e-01 -1.9369700444369248e-01
1.037054499588069e+11  9.0649448044853997e-01 -1.9407389939849795e-01 -7.7578178149564553e-02 -3.5960717497459299e-01 -7.7578178149564539e-02 -3.5960717497459299e-01  9.0649448044854009e-01 -1.9407389939849798e-01
1.037532238603273e+11  9.0632086639358689e-01 -1.9445126027692708e-01 -7.7786427508676134e-02 -3.5978603727872610e-01 -7.7786427508676079e-02 -3.5978603727872605e-01  9.0632086639358678e-01 -1.9445126027692705e-01
1.038010197698108e+11  9.0614662502643695e-01 -1.9482908810507718e-01 -7.7995261510324418e-02 -3.5996536863040213e-01 -7.7995261510324418e-02 -3.5996536863040207e-01  9.0614662502643706e-01 -1.9482908810507724e-01
1.038488376973949e+11  9.0597175382359385e-01 -1.9520738391036258e-01 -7.8204682694956784e-02 -3.6014516999138629e-01 -7.8204682694956770e-02 -3.6014516999138618e-01  9.0597175382359396e-01 -1.9520738391036260e-01
1.038966776532230e+11  9.0579625024860422e-01 -1.9558614872151933e-01 -7.8414693615931730e-02 -3.6032544232467001e-01 -7.8414693615931730e-02 -3.6032544232467001e-01  9.0579625024860422e-01 -1.9558614872151933e-01
1.039445396474434e+11  9.0562011175198687e-01 -1.9596538356858217e-01 -7.8625296839589562e-02 -3.6050618659445227e-01 -7.8625296839589576e-02 -3.6050618659445238e-01  9.0562011175198709e-01 -1.9596538356858226e-01
1.039924236902076e+11  9.0544333577115832e-01 -1.9634508948286128e-01 -7.8836494945324895e-02 -3.6068740376612085e-01 -7.8836494945324936e-02 -3.6068740376612096e-01  9.0544333577115843e-01 -1.9634508948286131e-01
1.040403297916734e+11  9.0526591973034565e-01 -1.9672526749695030e-01 -7.9048290525676065e-02 -3.6086909480624879e-01 -7.9048290525676052e-02 -3.6086909480624879e-01  9.0526591973034554e-01 -1.9672526749695027e-01
1.040882579620020e+11  9.0508786104052130e-01 -1.9710591864468588e-01 -7.9260686186388457e-02 -3.6105126068256721e-01 -7.9260686186388457e-02 -3.6105126068256721e-01  9.0508786104052141e-01 -1.9710591864468591e-01
1.041362082113600e+11  9.0490915709931297e-01 -1.9748704396115541e-01 -7.9473684546505913e-02 -3.6123390236396130e-01 -7.9473684546505927e-02 -3.6123390236396130e-01  9.0490915709931308e-01 -1.9748704396115543e-01
1.041841805499191e+11  9.0472980529092906e-01 -1.9786864448267422e-01 -7.9687288238445092e-02 -3.6141702082045157e-01 -7.9687288238445106e-02 -3.6141702082045157e-01  9.0472980529092895e-01 -1.9786864448267422e-01
1.042321749878542e+11  9.0454980298608478e-01 -1.9825072124675699e-01 -7.9901499908067469e-02 -3.6160061702317192e-01 -7.9901499908067442e-02 -3.6160061702317187e-01  9.0454980298608467e-01 -1.9825072124675699e-01
1.042801915353462e+11  9.0436914754191144e-01 -1.9863327529212610e-01 -8.0116322214772773e-02 -3.6178469194436519e-01 -8.0116322214772773e-02 -3.6178469194436519e-01  9.0436914754191156e-01 -1.9863327529212610e-01
1.043282302025808e+11  9.0418783630188204e-01 -1.9901630765868233e-01 -8.0331757831571843e-02 -3.6196924655736140e-01 -8.0331757831571843e-02 -3.6196924655736140e-01  9.0418783630188204e-01 -1.9901630765868236e-01
