# Hz S RI R 100

1.000000000000000e+09  1.3083353804086977e-02  2.8783330217010294e-02  9.8689426944020908e-01 -3.5459543195752258e-02  9.8689426944020908e-01 -3.5459543195752258e-02  1.3083353804086905e-02  2.8783330217010298e-02
1.000391317969594e+09  1.3084163307423773e-02  2.8794567841828989e-02  9.8689344241950328e-01 -3.5473393475590462e-02  9.8689344241950328e-01 -3.5473393475590462e-02  1.3084163307423773e-02  2.8794567841828995e-02
1.000782789068941e+09  1.3084973443164493e-02  2.8805809833860961e-02  9.8689261475267931e-01 -3.5487249145176883e-02  9.8689261475267931e-01 -3.5487249145176883e-02  1.3084973443164562e-02  2.8805809833860958e-02
1.001174413357965e+09  1.3085784211802436e-02  2.8817056194779655e-02  9.8689178643923348e-01 -3.5501110206585328e-02  9.8689178643923325e-01 -3.5501110206585314e-02  1.3085784211802506e-02  2.8817056194779658e-02
1.001566190896610e+09  1.3086595613830592e-02  2.8828306926259303e-02  9.8689095747866162e-01 -3.5514976661890442e-02  9.8689095747866162e-01 -3.5514976661890442e-02  1.3086595613830592e-02  2.8828306926259303e-02
1.001958121744841e+09  1.3087407649742875e-02  2.8839562029974411e-02  9.8689012787045927e-01 -3.5528848513167392e-02  9.8689012787045916e-01 -3.5528848513167378e-02  1.3087407649742804e-02  2.8839562029974418e-02
1.002350205962661e+09  1.3088220320034092e-02  2.8850821507600471e-02  9.8688929761412092e-01 -3.5542725762492483e-02  9.8688929761412125e-01 -3.5542725762492497e-02  1.3088220320034092e-02  2.8850821507600471e-02
1.002742443610080e+09  1.3089033625198049e-02  2.8862085360813521e-02  9.8688846670914221e-01 -3.5556608411942713e-02  9.8688846670914221e-01 -3.5556608411942706e-02  1.3089033625197978e-02  2.8862085360813527e-02
1.003134834747139e+09  1.3089847565729939e-02  2.8873353591289983e-02  9.8688763515501643e-01 -3.5570496463595551e-02  9.8688763515501665e-01 -3.5570496463595565e-02  1.3089847565729939e-02  2.8873353591289987e-02
1.003527379433902e+09  1.3090662142125386e-02  2.8884626200707100e-02  9.8688680295123810e-01 -3.5584389919529551e-02  9.8688680295123843e-01 -3.5584389919529565e-02  1.3090662142125316e-02  2.8884626200707100e-02
1.003920077730454e+09  1.3091477354879746e-02  2.8895903190742679e-02  9.8688597009730039e-01 -3.5598288781823917e-02  9.8688597009730039e-01 -3.5598288781823917e-02  1.3091477354879746e-02  2.8895903190742679e-02
1.004312929696906e+09  1.3092293204489935e-02  2.8907184563074902e-02  9.8688513659269572e-01 -3.5612193052558416e-02  9.8688513659269572e-01 -3.5612193052558416e-02  1.3092293204489935e-02  2.8907184563074898e-02
1.004705935393392e+09  1.3093109691451419e-02  2.8918470319383129e-02  9.8688430243691805e-01 -3.5626102733814141e-02  9.8688430243691805e-01 -3.5626102733814141e-02  1.3093109691451419e-02  2.8918470319383126e-02
1.005099094880070e+09  1.3093926816261748e-02  2.8929760461346828e-02  9.8688346762945867e-01 -3.5640017827672441e-02  9.8688346762945856e-01 -3.5640017827672434e-02  1.3093926816261748e-02  2.8929760461346828e-02
1.005492408217119e+09  1.3094744579417764e-02  2.8941054990646312e-02  9.8688263216981020e-01 -3.5653938336215663e-02  9.8688263216981043e-01 -3.5653938336215676e-02  1.3094744579417764e-02  2.8941054990646316e-02
1.005885875464741e+09  1.3095562981417588e-02  2.8952353908962267e-02  9.8688179605746373e-01 -3.5667864261526731e-02  9.8688179605746373e-01 -3.5667864261526731e-02  1.3095562981417518e-02  2.8952353908962267e-02
1.006279496683171e+09  1.3096382022759248e-02  2.8963657217976359e-02  9.8688095929190967e-01 -3.5681795605689653e-02  9.8688095929190989e-01 -3.5681795605689660e-02  1.3096382022759178e-02  2.8963657217976356e-02
1.006673271932657e+09  1.3097201703941175e-02  2.8974964919370648e-02  9.8688012187263974e-01 -3.5695732370789053e-02  9.8688012187263996e-01 -3.5695732370789067e-02  1.3097201703941175e-02  2.8974964919370655e-02
1.007067201273474e+09  1.3098022025461616e-02  2.8986277014827967e-02  9.8687928379914425e-01 -3.5709674558910394e-02  9.8687928379914425e-01 -3.5709674558910394e-02  1.3098022025461616e-02  2.8986277014827967e-02
1.007461284765921e+09  1.3098842987820585e-02  2.8997593506031451e-02  9.8687844507091260e-01 -3.5723622172139688e-02  9.8687844507091249e-01 -3.5723622172139681e-02  1.3098842987820655e-02  2.8997593506031458e-02
1.007855522470321e+09  1.3099664591517388e-02  2.9008914394665145e-02  9.8687760568743421e-01 -3.5737575212563932e-02  9.8687760568743410e-01 -3.5737575212563925e-02  1.3099664591517388e-02  2.9008914394665145e-02
1.008249914447018e+09  1.3100486837051853e-02  2.9020239682413608e-02  9.8687676564819848e-01 -3.5751533682270846e-02  9.8687676564819871e-01 -3.5751533682270853e-02  1.3100486837051853e-02  2.9020239682413608e-02
1.008644460756383e+09  1.3101309724924348e-02  2.9031569370962039e-02  9.8687592495269449e-01 -3.5765497583348960e-02  9.8687592495269427e-01 -3.5765497583348953e-02  1.3101309724924419e-02  2.9031569370962039e-02
1.009039161458808e+09  1.3102133255636025e-02  2.9042903461996186e-02  9.8687508360040976e-01 -3.5779466917887498e-02  9.8687508360040976e-01 -3.5779466917887498e-02  1.3102133255636023e-02  2.9042903461996183e-02
1.009434016614707e+09  1.3102957429687805e-02  2.9054241957202364e-02  9.8687424159083281e-01 -3.5793441687976345e-02  9.8687424159083281e-01 -3.5793441687976345e-02  1.3102957429687805e-02  2.9054241957202364e-02
1.009829026284528e+09  1.3103782247581236e-02  2.9065584858267848e-02  9.8687339892345094e-01 -3.5807421895706626e-02  9.8687339892345083e-01 -3.5807421895706626e-02  1.3103782247581306e-02  2.9065584858267844e-02
1.010224190528731e+09  1.3104607709818153e-02  2.9076932166880221e-02  9.8687255559775133e-01 -3.5821407543169849e-02  9.8687255559775133e-01 -3.5821407543169849e-02  1.3104607709818224e-02  2.9076932166880228e-02
1.010619509407804e+09  1.3105433816901340e-02  2.9088283884727621e-02  9.8687171161322018e-01 -3.5835398632458250e-02  9.8687171161322051e-01 -3.5835398632458264e-02  1.3105433816901340e-02  2.9088283884727624e-02
1.011014982982257e+09  1.3106260569332685e-02  2.9099640013499167e-02  9.8687086696934534e-01 -3.5849395165665196e-02  9.8687086696934501e-01 -3.5849395165665182e-02  1.3106260569332616e-02  2.9099640013499170e-02
1.011410611312627e+09  1.3107087967615947e-02  2.9111000554884154e-02  9.8687002166561122e-01 -3.5863397144884415e-02  9.8687002166561144e-01 -3.5863397144884422e-02  1.3107087967615947e-02  2.9111000554884154e-02
1.011806394459472e+09  1.3107916012254681e-02  2.9122365510572745e-02  9.8686917570150390e-01 -3.5877404572210649e-02  9.8686917570150356e-01 -3.5877404572210642e-02  1.3107916012254681e-02  2.9122365510572741e-02
1.012202332483374e+09  1.3108744703752411e-02  2.9133734882255721e-02  9.8686832907650845e-01 -3.5891417449739407e-02  9.8686832907650823e-01 -3.5891417449739393e-02  1.3108744703752340e-02  2.9133734882255728e-02
1.012598425444940e+09  1.3109574042613674e-02  2.9145108671624426e-02  9.8686748179010930e-01 -3.5905435779566904e-02  9.8686748179010930e-01 -3.5905435779566904e-02  1.3109574042613674e-02  2.9145108671624422e-02
1.012994673404799e+09  1.3110404029342854e-02  2.9156486880370869e-02  9.8686663384179152e-01 -3.5919459563790244e-02  9.8686663384179185e-01 -3.5919459563790251e-02  1.3110404029342923e-02  2.9156486880370869e-02
1.013391076423601e+09  1.3111234664445266e-02  2.9167869510187527e-02  9.8686578523103863e-01 -3.5933488804507065e-02  9.8686578523103852e-01 -3.5933488804507051e-02  1.3111234664445266e-02  2.9167869510187527e-02
1.013787634562032e+09  1.3112065948426494e-02  2.9179256562767767e-02  9.8686493595733393e-01 -3.5947523503816158e-02  9.8686493595733393e-01 -3.5947523503816158e-02  1.3112065948426566e-02  2.9179256562767767e-02
1.014184347880789e+09  1.3112897881792245e-02  2.9190648039805409e-02  9.8686408602016096e-01 -3.5961563663816865e-02  9.8686408602016085e-01 -3.5961563663816858e-02  1.3112897881792174e-02  2.9190648039805409e-02
1.014581216440595e+09  1.3113730465048445e-02  2.9202043942994887e-02  9.8686323541900212e-01 -3.5975609286609263e-02  9.8686323541900212e-01 -3.5975609286609270e-02  1.3113730465048445e-02  2.9202043942994887e-02
1.014978240302201e+09  1.3114563698702080e-02  2.9213444274031306e-02  9.8686238415334027e-01 -3.5989660374294345e-02  9.8686238415334027e-01 -3.5989660374294345e-02  1.3114563698702080e-02  2.9213444274031303e-02
1.015375419526379e+09  1.3115397583259948e-02  2.9224849034610336e-02  9.8686153222265705e-01 -3.6003716928973785e-02  9.8686153222265671e-01 -3.6003716928973778e-02  1.3115397583259948e-02  2.9224849034610336e-02
1.015772754173923e+09  1.3116232119229933e-02  2.9236258226428238e-02  9.8686067962643331e-01 -3.6017778952749983e-02  9.8686067962643331e-01 -3.6017778952749990e-02  1.3116232119229933e-02  2.9236258226428238e-02
1.016170244305656e+09  1.3117067307119364e-02  2.9247671851182020e-02  9.8685982636415093e-01 -3.6031846447726286e-02  9.8685982636415126e-01 -3.6031846447726300e-02  1.3117067307119364e-02  2.9247671851182017e-02
1.016567889982419e+09  1.3117903147436712e-02  2.9259089910569212e-02  9.8685897243529053e-01 -3.6045919416006725e-02  9.8685897243529053e-01 -3.6045919416006725e-02  1.3117903147436643e-02  2.9259089910569216e-02
1.016965691265082e+09  1.3118739640690439e-02  2.9270512406288026e-02  9.8685811783933264e-01 -3.6059997859696130e-02  9.8685811783933264e-01 -3.6059997859696130e-02  1.3118739640690508e-02  2.9270512406288019e-02
1.017363648214530e+09  1.3119576787389651e-02  2.9281939340037099e-02  9.8685726257575657e-01 -3.6074081780899915e-02  9.8685726257575657e-01 -3.6074081780899915e-02  1.3119576787389720e-02  2.9281939340037099e-02
1.017761760891688e+09  1.3120414588043678e-02  2.9293370713516103e-02  9.8685640664404195e-01 -3.6088171181724769e-02  9.8685640664404228e-01 -3.6088171181724783e-02  1.3120414588043749e-02  2.9293370713516103e-02
1.018160029357491e+09  1.3121253043162379e-02  2.9304806528424994e-02  9.8685555004366843e-01 -3.6102266064277751e-02  9.8685555004366843e-01 -3.6102266064277751e-02  1.3121253043162449e-02  2.9304806528424994e-02
1.018558453672901e+09  1.3122092153255778e-02  2.9316246786464443e-02  9.8685469277411442e-01 -3.6116366430666798e-02  9.8685469277411442e-01 -3.6116366430666798e-02  1.3122092153255849e-02  2.9316246786464436e-02
1.018957033898905e+09  1.3122931918834724e-02  2.9327691489335662e-02  9.8685383483485789e-01 -3.6130472283000585e-02  9.8685383483485789e-01 -3.6130472283000592e-02  1.3122931918834796e-02  2.9327691489335658e-02
1.019355770096514e+09  1.3123772340409987e-02  2.9339140638740633e-02  9.8685297622537704e-01 -3.6144583623388682e-02  9.8685297622537704e-01 -3.6144583623388682e-02  1.3123772340409916e-02  2.9339140638740636e-02
1.019754662326762e+09  1.3124613418492933e-02  2.9350594236381884e-02  9.8685211694514963e-01 -3.6158700453941373e-02  9.8685211694514963e-01 -3.6158700453941373e-02  1.3124613418492864e-02  2.9350594236381894e-02
1.020153710650708e+09  1.3125455153595394e-02  2.9362052283962544e-02  9.8685125699365217e-01 -3.6172822776769697e-02  9.8685125699365217e-01 -3.6172822776769697e-02  1.3125455153595394e-02  2.9362052283962544e-02
1.020552915129434e+09  1.3126297546229532e-02  2.9373514783186398e-02  9.8685039637036187e-01 -3.6186950593985523e-02  9.8685039637036165e-01 -3.6186950593985516e-02  1.3126297546229461e-02  2.9373514783186401e-02
1.020952275824041e+09  1.3127140596908378e-02  2.9384981735757598e-02  9.8684953507475370e-01 -3.6201083907701236e-02  9.8684953507475404e-01 -3.6201083907701249e-02  1.3127140596908306e-02  2.9384981735757591e-02
1.021351792795669e+09  1.3127984306143753e-02  2.9396453143381712e-02  9.8684867310630586e-01 -3.6215222720030839e-02  9.8684867310630586e-01 -3.6215222720030839e-02  1.3127984306143823e-02  2.9396453143381712e-02
1.021751466105468e+09  1.3128828674450022e-02  2.9407929007763987e-02  9.8684781046449166e-01 -3.6229367033088107e-02  9.8684781046449166e-01 -3.6229367033088107e-02  1.3128828674450093e-02  2.9407929007763990e-02
1.022151295814614e+09  1.3129673702340684e-02  2.9419409330610803e-02  9.8684694714878718e-01 -3.6243516848988154e-02  9.8684694714878707e-01 -3.6243516848988147e-02  1.3129673702340612e-02  2.9419409330610803e-02
1.022551281984310e+09  1.3130519390329746e-02  2.9430894113629060e-02  9.8684608315866695e-01 -3.6257672169846746e-02  9.8684608315866684e-01 -3.6257672169846739e-02  1.3130519390329746e-02  2.9430894113629060e-02
1.022951424675782e+09  1.3131365738932178e-02  2.9442383358526159e-02  9.8684521849360451e-01 -3.6271832997780334e-02  9.8684521849360451e-01 -3.6271832997780334e-02  1.3131365738932107e-02  2.9442383358526159e-02
1.023351723950279e+09  1.3132212748662260e-02  2.9453877067010411e-02  9.8684435315307495e-01 -3.6285999334906421e-02  9.8684435315307495e-01 -3.6285999334906421e-02  1.3132212748662189e-02  2.9453877067010421e-02
1.023752179869076e+09  1.3133060420036093e-02  2.9465375240790428e-02  9.8684348713655023e-01 -3.6300171183342972e-02  9.8684348713655012e-01 -3.6300171183342965e-02  1.3133060420036022e-02  2.9465375240790428e-02
1.024152792493470e+09  1.3133908753568626e-02  2.9476877881575780e-02  9.8684262044350513e-01 -3.6314348545209103e-02  9.8684262044350513e-01 -3.6314348545209096e-02  1.3133908753568695e-02  2.9476877881575780e-02
1.024553561884783e+09  1.3134757749776757e-02  2.9488384991076283e-02  9.8684175307341049e-01 -3.6328531422624273e-02  9.8684175307341049e-01 -3.6328531422624273e-02  1.3134757749776826e-02  2.9488384991076276e-02
1.024954488104356e+09  1.3135607409176769e-02  2.9499896571002538e-02  9.8684088502573930e-01 -3.6342719817708945e-02  9.8684088502573930e-01 -3.6342719817708938e-02  1.3135607409176700e-02  2.9499896571002542e-02
1.025355571213567e+09  1.3136457732285301e-02  2.9511412623066103e-02  9.8684001629996354e-01 -3.6356913732584685e-02  9.8684001629996343e-01 -3.6356913732584671e-02  1.3136457732285301e-02  2.9511412623066103e-02
1.025756811273806e+09  1.3137308719620397e-02  2.9522933148978633e-02  9.8683914689555396e-01 -3.6371113169373318e-02  9.8683914689555396e-01 -3.6371113169373318e-02  1.3137308719620397e-02  2.9522933148978636e-02
1.026158208346491e+09  1.3138160371699337e-02  2.9534458150452719e-02  9.8683827681198222e-01 -3.6385318130197762e-02  9.8683827681198211e-01 -3.6385318130197755e-02  1.3138160371699266e-02  2.9534458150452726e-02
1.026559762493064e+09  1.3139012689040292e-02  2.9545987629201496e-02  9.8683740604871839e-01 -3.6399528617181591e-02  9.8683740604871828e-01 -3.6399528617181591e-02  1.3139012689040361e-02  2.9545987629201489e-02
1.026961473774989e+09  1.3139865672162033e-02  2.9557521586938657e-02  9.8683653460523246e-01 -3.6413744632449195e-02  9.8683653460523246e-01 -3.6413744632449195e-02  1.3139865672162033e-02  2.9557521586938661e-02
1.027363342253759e+09  1.3140719321583477e-02  2.9569060025378669e-02  9.8683566248099452e-01 -3.6427966178125819e-02  9.8683566248099452e-01 -3.6427966178125819e-02  1.3140719321583408e-02  2.9569060025378669e-02
1.027765367990885e+09  1.3141573637823723e-02  2.9580602946236566e-02  9.8683478967547389e-01 -3.6442193256337484e-02  9.8683478967547389e-01 -3.6442193256337484e-02  1.3141573637823723e-02  2.9580602946236566e-02
1.028167551047906e+09  1.3142428621403031e-02  2.9592150351227881e-02  9.8683391618813932e-01 -3.6456425869210836e-02  9.8683391618813920e-01 -3.6456425869210829e-02  1.3142428621402961e-02  2.9592150351227885e-02
1.028569891486380e+09  1.3143284272841374e-02  2.9603702242068805e-02  9.8683304201845912e-01 -3.6470664018873326e-02  9.8683304201845912e-01 -3.6470664018873326e-02  1.3143284272841374e-02  2.9603702242068805e-02
1.028972389367902e+09  1.3144140592658952e-02  2.9615258620476603e-02  9.8683216716590205e-01 -3.6484907707453718e-02  9.8683216716590205e-01 -3.6484907707453718e-02  1.3144140592658881e-02  2.9615258620476606e-02
1.029375044754078e+09  1.3144997581377497e-02  2.9626819488168435e-02  9.8683129162993455e-01 -3.6499156937080793e-02  9.8683129162993488e-01 -3.6499156937080800e-02  1.3144997581377426e-02  2.9626819488168445e-02
1.029777857706542e+09  1.3145855239517522e-02  2.9638384846862702e-02  9.8683041541002525e-01 -3.6513411709884674e-02  9.8683041541002525e-01 -3.6513411709884674e-02  1.3145855239517591e-02  2.9638384846862698e-02
1.030180828286953e+09  1.3146713567601389e-02  2.9649954698278053e-02  9.8682953850564037e-01 -3.6527672027995992e-02  9.8682953850564015e-01 -3.6527672027995985e-02  1.3146713567601389e-02  2.9649954698278053e-02
1.030583956556993e+09  1.3147572566151570e-02  2.9661529044133814e-02  9.8682866091624577e-01 -3.6541937893546129e-02  9.8682866091624577e-01 -3.6541937893546129e-02  1.3147572566151499e-02  2.9661529044133821e-02
1.030987242578369e+09  1.3148432235690006e-02  2.9673107886150147e-02  9.8682778264130844e-01 -3.6556209308667535e-02  9.8682778264130844e-01 -3.6556209308667535e-02  1.3148432235690075e-02  2.9673107886150143e-02
1.031390686412812e+09  1.3149292576740055e-02  2.9684691226047659e-02  9.8682690368029335e-01 -3.6570486275493218e-02  9.8682690368029335e-01 -3.6570486275493218e-02  1.3149292576740055e-02  2.9684691226047662e-02
1.031794288122078e+09  1.3150153589825155e-02  2.9696279065547639e-02  9.8682602403266573e-01 -3.6584768796157061e-02  9.8682602403266606e-01 -3.6584768796157068e-02  1.3150153589825155e-02  2.9696279065547643e-02
1.032198047767944e+09  1.3151015275468862e-02  2.9707871406372047e-02  9.8682514369789076e-01 -3.6599056872793745e-02  9.8682514369789076e-01 -3.6599056872793745e-02  1.3151015275468862e-02  2.9707871406372047e-02
1.032601965412212e+09  1.3151877634196030e-02  2.9719468250243138e-02  9.8682426267543188e-01 -3.6613350507538431e-02  9.8682426267543188e-01 -3.6613350507538431e-02  1.3151877634196030e-02  2.9719468250243138e-02
1.033006041116716e+09  1.3152740666530506e-02  2.9731069598884552e-02  9.8682338096475408e-01 -3.6627649702527847e-02  9.8682338096475430e-01 -3.6627649702527861e-02  1.3152740666530575e-02  2.9731069598884548e-02
1.033410274943304e+09  1.3153604372997828e-02  2.9742675454019860e-02  9.8682249856532067e-01 -3.6641954459898797e-02  9.8682249856532067e-01 -3.6641954459898797e-02  1.3153604372997897e-02  2.9742675454019849e-02
1.033814666953852e+09  1.3154468754123383e-02  2.9754285817373455e-02  9.8682161547659408e-01 -3.6656264781789051e-02  9.8682161547659408e-01 -3.6656264781789058e-02  1.3154468754123383e-02  2.9754285817373459e-02
1.034219217210261e+09  1.3155333810432912e-02  2.9765900690670467e-02  9.8682073169803741e-01 -3.6670580670337273e-02  9.8682073169803741e-01 -3.6670580670337273e-02  1.3155333810432842e-02  2.9765900690670467e-02
1.034623925774455e+09  1.3156199542452701e-02  2.9777520075636544e-02  9.8681984722911298e-01 -3.6684902127682842e-02  9.8681984722911298e-01 -3.6684902127682849e-02  1.3156199542452632e-02  2.9777520075636551e-02
1.035028792708383e+09  1.3157065950709586e-02  2.9789143973998022e-02  9.8681896206928266e-01 -3.6699229155965969e-02  9.8681896206928266e-01 -3.6699229155965969e-02  1.3157065950709517e-02  2.9789143973998022e-02
1.035433818074017e+09  1.3157933035730316e-02  2.9800772387481828e-02  9.8681807621800743e-01 -3.6713561757327616e-02  9.8681807621800743e-01 -3.6713561757327616e-02  1.3157933035730388e-02  2.9800772387481828e-02
1.035839001933355e+09  1.3158800798042766e-02  2.9812405317815587e-02  9.8681718967474941e-01 -3.6727899933909611e-02  9.8681718967474907e-01 -3.6727899933909604e-02  1.3158800798042837e-02  2.9812405317815576e-02
1.036244344348413e+09  1.3159669238174828e-02  2.9824042766727246e-02  9.8681630243896779e-01 -3.6742243687854247e-02  9.8681630243896779e-01 -3.6742243687854247e-02  1.3159669238174897e-02  2.9824042766727246e-02
1.036649845381247e+09  1.3160538356654386e-02  2.9835684735946111e-02  9.8681541451012367e-01 -3.6756593021305385e-02  9.8681541451012400e-01 -3.6756593021305392e-02  1.3160538356654317e-02  2.9835684735946121e-02
