# Hz S RI R 100

4.999999999999999e+10  7.3197692022629446e-01  2.4035987949439452e-01  2.0210565605237901e-01 -5.9632972468752077e-01  2.0210565605237904e-01 -5.9632972468752099e-01  7.3197692022629435e-01  2.4035987949439447e-01
5.000346620265101e+10  7.3200137683633926e-01  2.4032743715618399e-01  2.0207049406740088e-01 -5.9632515372761952e-01  2.0207049406740091e-01 -5.9632515372761952e-01  7.3200137683633937e-01  2.4032743715618402e-01
5.000693264559344e+10  7.3202583065054605e-01  2.4029499170545415e-01  2.0203533290457074e-01 -5.9632058228081231e-01  2.0203533290457074e-01 -5.9632058228081231e-01  7.3202583065054616e-01  2.4029499170545418e-01
5.001039932884355e+10  7.3205028166855601e-01  2.4026254314227355e-01  2.0200017256381392e-01 -5.9631601034749859e-01  2.0200017256381395e-01 -5.9631601034749859e-01  7.3205028166855579e-01  2.4026254314227352e-01
5.001386625241840e+10  7.3207472989001510e-01  2.4023009146670354e-01  2.0196501304504835e-01 -5.9631143792807706e-01  2.0196501304504832e-01 -5.9631143792807695e-01  7.3207472989001521e-01  2.4023009146670363e-01
5.001733341633423e+10  7.3209917531456381e-01  2.4019763667881242e-01  2.0192985434819907e-01 -5.9630686502294661e-01  2.0192985434819910e-01 -5.9630686502294672e-01  7.3209917531456381e-01  2.4019763667881242e-01
5.002080082060812e+10  7.3212361794184855e-01  2.4016517877866139e-01  2.0189469647318350e-01 -5.9630229163250570e-01  2.0189469647318359e-01 -5.9630229163250581e-01  7.3212361794184855e-01  2.4016517877866139e-01
5.002426846525632e+10  7.3214805777151026e-01  2.4013271776631889e-01  2.0185953941992679e-01 -5.9629771775715401e-01  2.0185953941992688e-01 -5.9629771775715412e-01  7.3214805777151026e-01  2.4013271776631895e-01
5.002773635029591e+10  7.3217249480319457e-01  2.4010025364184595e-01  2.0182438318834586e-01 -5.9629314339728945e-01  2.0182438318834584e-01 -5.9629314339728945e-01  7.3217249480319457e-01  2.4010025364184595e-01
5.003120447574315e+10  7.3219692903654232e-01  2.4006778640531073e-01  2.0178922777836569e-01 -5.9628856855331192e-01  2.0178922777836569e-01 -5.9628856855331192e-01  7.3219692903654221e-01  2.4006778640531073e-01
5.003467284161490e+10  7.3222136047119823e-01  2.4003531605677636e-01  2.0175407318990507e-01 -5.9628399322561998e-01  2.0175407318990513e-01 -5.9628399322561998e-01  7.3222136047119823e-01  2.4003531605677633e-01
5.003814144792802e+10  7.3224578910680715e-01  2.4000284259630578e-01  2.0171891942288303e-01 -5.9627941741461243e-01  2.0171891942288303e-01 -5.9627941741461243e-01  7.3224578910680715e-01  2.4000284259630578e-01
5.004161029469880e+10  7.3227021494300948e-01  2.3997036602396687e-01  2.0168376647722389e-01 -5.9627484112068874e-01  2.0168376647722389e-01 -5.9627484112068863e-01  7.3227021494300959e-01  2.3997036602396696e-01
5.004507938194429e+10  7.3229463797945160e-01  2.3993788633982088e-01  2.0164861435284423e-01 -5.9627026434424757e-01  2.0164861435284423e-01 -5.9627026434424746e-01  7.3229463797945149e-01  2.3993788633982086e-01
5.004854870968077e+10  7.3231905821577392e-01  2.3990540354393602e-01  2.0161346304966846e-01 -5.9626568708568850e-01  2.0161346304966840e-01 -5.9626568708568839e-01  7.3231905821577381e-01  2.3990540354393602e-01
5.005201827792532e+10  7.3234347565162250e-01  2.3987291763637311e-01  2.0157831256761294e-01 -5.9626110934541021e-01  2.0157831256761288e-01 -5.9626110934541010e-01  7.3234347565162239e-01  2.3987291763637311e-01
5.005548808669419e+10  7.3236789028663785e-01  2.3984042861720045e-01  2.0154316290660176e-01 -5.9625653112381238e-01  2.0154316290660182e-01 -5.9625653112381238e-01  7.3236789028663773e-01  2.3984042861720040e-01
5.005895813600447e+10  7.3239230212046613e-01  2.3980793648647888e-01  2.0150801406655131e-01 -5.9625195242129370e-01  2.0150801406655131e-01 -5.9625195242129392e-01  7.3239230212046613e-01  2.3980793648647894e-01
5.006242842587244e+10  7.3241671115274765e-01  2.3977544124427666e-01  2.0147286604738535e-01 -5.9624737323825394e-01  2.0147286604738535e-01 -5.9624737323825394e-01  7.3241671115274765e-01  2.3977544124427666e-01
5.006589895631516e+10  7.3244111738312867e-01  2.3974294289065445e-01  2.0143771884901979e-01 -5.9624279357509202e-01  2.0143771884901987e-01 -5.9624279357509213e-01  7.3244111738312878e-01  2.3974294289065451e-01
5.006936972734892e+10  7.3246552081124983e-01  2.3971044142568035e-01  2.0140257247137833e-01 -5.9623821343220751e-01  2.0140257247137833e-01 -5.9623821343220740e-01  7.3246552081124972e-01  2.3971044142568035e-01
5.007284073899059e+10  7.3248992143675529e-01  2.3967793684941718e-01  2.0136742691437889e-01 -5.9623363280999975e-01  2.0136742691437892e-01 -5.9623363280999975e-01  7.3248992143675540e-01  2.3967793684941724e-01
5.007631199125706e+10  7.3251431925929045e-01  2.3964542916192685e-01  2.0133228217793844e-01 -5.9622905170886753e-01  2.0133228217793847e-01 -5.9622905170886764e-01  7.3251431925929045e-01  2.3964542916192685e-01
5.007978348416460e+10  7.3253871427849448e-01  2.3961291836327830e-01  2.0129713826198126e-01 -5.9622447012921076e-01  2.0129713826198126e-01 -5.9622447012921076e-01  7.3253871427849448e-01  2.3961291836327830e-01
5.008325521773032e+10  7.3256310649401468e-01  2.3958040445353140e-01  2.0126199516642190e-01 -5.9621988807142867e-01  2.0126199516642190e-01 -5.9621988807142867e-01  7.3256310649401479e-01  2.3958040445353146e-01
5.008672719197046e+10  7.3258749590549088e-01  2.3954788743275507e-01  2.0122685289118439e-01 -5.9621530553592139e-01  2.0122685289118436e-01 -5.9621530553592139e-01  7.3258749590549088e-01  2.3954788743275507e-01
5.009019940690213e+10  7.3261188251256903e-01  2.3951536730100914e-01  2.0119171143618336e-01 -5.9621072252308760e-01  2.0119171143618336e-01 -5.9621072252308760e-01  7.3261188251256915e-01  2.3951536730100917e-01
5.009367186254161e+10  7.3263626631488976e-01  2.3948284405836195e-01  2.0115657080134186e-01 -5.9620613903332720e-01  2.0115657080134186e-01 -5.9620613903332720e-01  7.3263626631488976e-01  2.3948284405836195e-01
5.009714455890599e+10  7.3266064731209857e-01  2.3945031770487391e-01  2.0112143098657509e-01 -5.9620155506703942e-01  2.0112143098657517e-01 -5.9620155506703953e-01  7.3266064731209879e-01  2.3945031770487399e-01
5.010061749601157e+10  7.3268502550383630e-01  2.3941778824061291e-01  2.0108629199180547e-01 -5.9619697062462451e-01  2.0108629199180539e-01 -5.9619697062462429e-01  7.3268502550383641e-01  2.3941778824061291e-01
5.010409067387521e+10  7.3270940088974734e-01  2.3938525566564170e-01  2.0105115381695024e-01 -5.9619238570648170e-01  2.0105115381695024e-01 -5.9619238570648170e-01  7.3270940088974734e-01  2.3938525566564170e-01
5.010756409251382e+10  7.3273377346947643e-01  2.3935271998002186e-01  2.0101601646192518e-01 -5.9618780031301044e-01  2.0101601646192524e-01 -5.9618780031301044e-01  7.3273377346947632e-01  2.3935271998002192e-01
5.011103775194369e+10  7.3275814324266297e-01  2.3932018118382206e-01  2.0098087992665392e-01 -5.9618321444461087e-01  2.0098087992665392e-01 -5.9618321444461087e-01  7.3275814324266308e-01  2.3932018118382206e-01
5.011451165218192e+10  7.3278251020895435e-01  2.3928763927710223e-01  2.0094574421104974e-01 -5.9617862810168221e-01  2.0094574421104974e-01 -5.9617862810168221e-01  7.3278251020895424e-01  2.3928763927710223e-01
5.011798579324477e+10  7.3280687436798952e-01  2.3925509425993072e-01  2.0091060931503596e-01 -5.9617404128462514e-01  2.0091060931503596e-01 -5.9617404128462514e-01  7.3280687436798952e-01  2.3925509425993072e-01
5.012146017514938e+10  7.3283123571941511e-01  2.3922254613236710e-01  2.0087547523852578e-01 -5.9616945399383803e-01  2.0087547523852578e-01 -5.9616945399383803e-01  7.3283123571941511e-01  2.3922254613236710e-01
5.012493479791202e+10  7.3285559426287095e-01  2.3918999489447990e-01  2.0084034198144210e-01 -5.9616486622972209e-01  2.0084034198144207e-01 -5.9616486622972209e-01  7.3285559426287095e-01  2.3918999489447990e-01
5.012840966154979e+10  7.3287994999800388e-01  2.3915744054632884e-01  2.0080520954369804e-01 -5.9616027799267646e-01  2.0080520954369804e-01 -5.9616027799267646e-01  7.3287994999800388e-01  2.3915744054632884e-01
5.013188476607899e+10  7.3290430292445274e-01  2.3912488308798216e-01  2.0077007792521626e-01 -5.9615568928310125e-01  2.0077007792521628e-01 -5.9615568928310125e-01  7.3290430292445286e-01  2.3912488308798219e-01
5.013536011151653e+10  7.3292865304186294e-01  2.3909232251950191e-01  2.0073494712591236e-01 -5.9615110010139638e-01  2.0073494712591236e-01 -5.9615110010139638e-01  7.3292865304186294e-01  2.3909232251950191e-01
5.013883569787929e+10  7.3295300034987843e-01  2.3905975884094996e-01  2.0069981714570159e-01 -5.9614651044796130e-01  2.0069981714570156e-01 -5.9614651044796130e-01  7.3295300034987843e-01  2.3905975884094999e-01
5.014231152518359e+10  7.3297734484813981e-01  2.3902719205239423e-01  2.0066468798450587e-01 -5.9614192032319702e-01  2.0066468798450582e-01 -5.9614192032319679e-01  7.3297734484813981e-01  2.3902719205239423e-01
5.014578759344653e+10  7.3300168653629272e-01  2.3899462215389419e-01  2.0062955964223786e-01 -5.9613732972750211e-01  2.0062955964223786e-01 -5.9613732972750211e-01  7.3300168653629261e-01  2.3899462215389417e-01
5.014926390268440e+10  7.3302602541397721e-01  2.3896204914551855e-01  2.0059443211882003e-01 -5.9613273866127814e-01  2.0059443211882008e-01 -5.9613273866127814e-01  7.3302602541397710e-01  2.3896204914551850e-01
5.015274045291432e+10  7.3305036148083935e-01  2.3892947302732698e-01  2.0055930541416508e-01 -5.9612814712492435e-01  2.0055930541416506e-01 -5.9612814712492423e-01  7.3305036148083935e-01  2.3892947302732698e-01
5.015621724415260e+10  7.3307469473651876e-01  2.3889689379938700e-01  2.0052417952819421e-01 -5.9612355511884119e-01  2.0052417952819421e-01 -5.9612355511884119e-01  7.3307469473651887e-01  2.3889689379938706e-01
5.015969427641633e+10  7.3309902518066172e-01  2.3886431146175865e-01  2.0048905446082008e-01 -5.9611896264342801e-01  2.0048905446082013e-01 -5.9611896264342812e-01  7.3309902518066172e-01  2.3886431146175868e-01
5.016317154972183e+10  7.3312335281290830e-01  2.3883172601450955e-01  2.0045393021196395e-01 -5.9611436969908627e-01  2.0045393021196398e-01 -5.9611436969908638e-01  7.3312335281290819e-01  2.3883172601450953e-01
5.016664906408601e+10  7.3314767763290278e-01  2.3879913745770176e-01  2.0041880678154064e-01 -5.9610977628621542e-01  2.0041880678154064e-01 -5.9610977628621542e-01  7.3314767763290278e-01  2.3879913745770184e-01
5.017012681952579e+10  7.3317199964028923e-01  2.3876654579139689e-01  2.0038368416946448e-01 -5.9610518240521548e-01  2.0038368416946456e-01 -5.9610518240521559e-01  7.3317199964028923e-01  2.3876654579139683e-01
5.017360481605746e+10  7.3319631883470804e-01  2.3873395101566272e-01  2.0034856237565654e-01 -5.9610058805648736e-01  2.0034856237565654e-01 -5.9610058805648736e-01  7.3319631883470804e-01  2.3873395101566272e-01
5.017708305369815e+10  7.3322063521580494e-01  2.3870135313055885e-01  2.0031344140002885e-01 -5.9609599324043083e-01  2.0031344140002885e-01 -5.9609599324043083e-01  7.3322063521580494e-01  2.3870135313055885e-01
5.018056153246417e+10  7.3324494878321989e-01  2.3866875213615296e-01  2.0027832124250208e-01 -5.9609139795744681e-01  2.0027832124250203e-01 -5.9609139795744659e-01  7.3324494878322000e-01  2.3866875213615302e-01
5.018404025237263e+10  7.3326925953659849e-01  2.3863614803250480e-01  2.0024320190298830e-01 -5.9608680220793475e-01  2.0024320190298828e-01 -5.9608680220793464e-01  7.3326925953659849e-01  2.3863614803250482e-01
5.018751921343987e+10  7.3329356747558072e-01  2.3860354081968191e-01  2.0020808338140775e-01 -5.9608220599229600e-01  2.0020808338140769e-01 -5.9608220599229589e-01  7.3329356747558061e-01  2.3860354081968183e-01
5.019099841568298e+10  7.3331787259981251e-01  2.3857093049774400e-01  2.0017296567767254e-01 -5.9607760931093035e-01  2.0017296567767254e-01 -5.9607760931093023e-01  7.3331787259981263e-01  2.3857093049774408e-01
5.019447785911829e+10  7.3334217490893383e-01  2.3853831706675852e-01  2.0013784879170238e-01 -5.9607301216423869e-01  2.0013784879170241e-01 -5.9607301216423869e-01  7.3334217490893383e-01  2.3853831706675846e-01
5.019795754376292e+10  7.3336647440258984e-01  2.3850570052678516e-01  2.0010273272340945e-01 -5.9606841455262105e-01  2.0010273272340945e-01 -5.9606841455262105e-01  7.3336647440258973e-01  2.3850570052678510e-01
5.020143746963321e+10  7.3339077108042139e-01  2.3847308087789124e-01  2.0006761747271309e-01 -5.9606381647647877e-01  2.0006761747271312e-01 -5.9606381647647877e-01  7.3339077108042150e-01  2.3847308087789129e-01
5.020491763674605e+10  7.3341506494207220e-01  2.3844045812013850e-01  2.0003250303952722e-01 -5.9605921793621164e-01  2.0003250303952716e-01 -5.9605921793621164e-01  7.3341506494207220e-01  2.3844045812013853e-01
5.020839804511838e+10  7.3343935598718624e-01  2.3840783225358833e-01  1.9999738942376508e-01 -5.9605461893222034e-01  1.9999738942376502e-01 -5.9605461893222034e-01  7.3343935598718624e-01  2.3840783225358833e-01
5.021187869476653e+10  7.3346364421540378e-01  2.3837520327830819e-01  1.9996227662534630e-01 -5.9605001946490599e-01  1.9996227662534630e-01 -5.9605001946490599e-01  7.3346364421540367e-01  2.3837520327830811e-01
5.021535958570761e+10  7.3348792962637044e-01  2.3834257119435764e-01  1.9992716464418217e-01 -5.9604541953466850e-01  1.9992716464418217e-01 -5.9604541953466850e-01  7.3348792962637055e-01  2.3834257119435767e-01
5.021884071795797e+10  7.3351221221972596e-01  2.3830993600180367e-01  1.9989205348019168e-01 -5.9604081914190910e-01  1.9989205348019171e-01 -5.9604081914190921e-01  7.3351221221972585e-01  2.3830993600180372e-01
5.022232209153472e+10  7.3353649199511572e-01  2.3827729770070652e-01  1.9985694313328642e-01 -5.9603621828702835e-01  1.9985694313328636e-01 -5.9603621828702835e-01  7.3353649199511561e-01  2.3827729770070646e-01
5.022580370645420e+10  7.3356076895218025e-01  2.3824465629113259e-01  1.9982183360338476e-01 -5.9603161697042750e-01  1.9982183360338474e-01 -5.9603161697042750e-01  7.3356076895218025e-01  2.3824465629113259e-01
5.022928556273354e+10  7.3358504309056471e-01  2.3821201177314158e-01  1.9978672489039756e-01 -5.9602701519250634e-01  1.9978672489039756e-01 -5.9602701519250634e-01  7.3358504309056449e-01  2.3821201177314158e-01
5.023276766038906e+10  7.3360931440990851e-01  2.3817936414680116e-01  1.9975161699424432e-01 -5.9602241295366654e-01  1.9975161699424432e-01 -5.9602241295366654e-01  7.3360931440990862e-01  2.3817936414680119e-01
5.023624999943771e+10  7.3363358290985647e-01  2.3814671341217195e-01  1.9971650991483683e-01 -5.9601781025430856e-01  1.9971650991483683e-01 -5.9601781025430856e-01  7.3363358290985647e-01  2.3814671341217195e-01
5.023973257989641e+10  7.3365784859005223e-01  2.3811405956931600e-01  1.9968140365208836e-01 -5.9601320709483319e-01  1.9968140365208828e-01 -5.9601320709483308e-01  7.3365784859005223e-01  2.3811405956931600e-01
5.024321540178151e+10  7.3368211145013584e-01  2.3808140261829977e-01  1.9964629820591673e-01 -5.9600860347564155e-01  1.9964629820591681e-01 -5.9600860347564177e-01  7.3368211145013573e-01  2.3808140261829977e-01
5.024669846511014e+10  7.3370637148975282e-01  2.3804874255918312e-01  1.9961119357623272e-01 -5.9600399939713467e-01  1.9961119357623264e-01 -5.9600399939713455e-01  7.3370637148975293e-01  2.3804874255918312e-01
5.025018176989863e+10  7.3373062870854266e-01  2.3801607939203262e-01  1.9957608976295424e-01 -5.9599939485971332e-01  1.9957608976295418e-01 -5.9599939485971321e-01  7.3373062870854278e-01  2.3801607939203262e-01
5.025366531616412e+10  7.3375488310615122e-01  2.3798341311690785e-01  1.9954098676599147e-01 -5.9599478986377830e-01  1.9954098676599144e-01 -5.9599478986377818e-01  7.3375488310615111e-01  2.3798341311690782e-01
5.025714910392297e+10  7.3377913468221800e-01  2.3795074373387590e-01  1.9950588458526269e-01 -5.9599018440973128e-01  1.9950588458526269e-01 -5.9599018440973128e-01  7.3377913468221811e-01  2.3795074373387590e-01
5.026063313319231e+10  7.3380338343638851e-01  2.3791807124299588e-01  1.9947078322067752e-01 -5.9598557849797262e-01  1.9947078322067749e-01 -5.9598557849797251e-01  7.3380338343638851e-01  2.3791807124299588e-01
5.026411740398846e+10  7.3382762936830259e-01  2.3788539564433492e-01  1.9943568267215409e-01 -5.9598097212890433e-01  1.9943568267215409e-01 -5.9598097212890433e-01  7.3382762936830248e-01  2.3788539564433492e-01
5.026760191632840e+10  7.3385187247760386e-01  2.3785271693795382e-01  1.9940058293960364e-01 -5.9597636530292675e-01  1.9940058293960364e-01 -5.9597636530292664e-01  7.3385187247760408e-01  2.3785271693795382e-01
5.027108667022906e+10  7.3387611276393694e-01  2.3782003512391378e-01  1.9936548402293780e-01 -5.9597175802044100e-01  1.9936548402293783e-01 -5.9597175802044122e-01  7.3387611276393683e-01  2.3782003512391378e-01
5.027457166570677e+10  7.3390035022694100e-01  2.3778735020228212e-01  1.9933038592207469e-01 -5.9596715028184910e-01  1.9933038592207461e-01 -5.9596715028184899e-01  7.3390035022694100e-01  2.3778735020228214e-01
5.027805690277870e+10  7.3392458486626144e-01  2.3775466217311747e-01  1.9929528863692283e-01 -5.9596254208755106e-01  1.9929528863692283e-01 -5.9596254208755106e-01  7.3392458486626122e-01  2.3775466217311739e-01
5.028154238146119e+10  7.3394881668153811e-01  2.3772197103648665e-01  1.9926019216740004e-01 -5.9595793343794934e-01  1.9926019216740007e-01 -5.9595793343794956e-01  7.3394881668153800e-01  2.3772197103648665e-01
5.028502810177139e+10  7.3397304567241628e-01  2.3768927679244911e-01  1.9922509651341527e-01 -5.9595332433344450e-01  1.9922509651341527e-01 -5.9595332433344439e-01  7.3397304567241628e-01  2.3768927679244911e-01
5.028851406372565e+10  7.3399727183853580e-01  2.3765657944107138e-01  1.9919000167488551e-01 -5.9594871477443834e-01  1.9919000167488551e-01 -5.9594871477443834e-01  7.3399727183853580e-01  2.3765657944107138e-01
5.029200026734111e+10  7.3402149517954163e-01  2.3762387898241275e-01  1.9915490765171992e-01 -5.9594410476133164e-01  1.9915490765171992e-01 -5.9594410476133164e-01  7.3402149517954163e-01  2.3762387898241266e-01
5.029548671263415e+10  7.3404571569507371e-01  2.3759117541653940e-01  1.9911981444383520e-01 -5.9593949429452642e-01  1.9911981444383514e-01 -5.9593949429452642e-01  7.3404571569507371e-01  2.3759117541653940e-01
5.029897339962190e+10  7.3406993338477722e-01  2.3755846874351075e-01  1.9908472205113978e-01 -5.9593488337442357e-01  1.9908472205113983e-01 -5.9593488337442357e-01  7.3406993338477722e-01  2.3755846874351069e-01
5.030246032832072e+10  7.3409414824829178e-01  2.3752575896339342e-01  1.9904963047355081e-01 -5.9593027200142501e-01  1.9904963047355081e-01 -5.9593027200142501e-01  7.3409414824829167e-01  2.3752575896339342e-01
5.030594749874757e+10  7.3411836028526101e-01  2.3749304607624822e-01  1.9901453971097857e-01 -5.9592566017593196e-01  1.9901453971097857e-01 -5.9592566017593196e-01  7.3411836028526090e-01  2.3749304607624816e-01
5.030943491091942e+10  7.3414256949532897e-01  2.3746033008213613e-01  1.9897944976333348e-01 -5.9592104789834577e-01  1.9897944976333348e-01 -5.9592104789834577e-01  7.3414256949532919e-01  2.3746033008213616e-01
5.031292256485260e+10  7.3416677587813561e-01  2.3742761098112344e-01  1.9894436063053161e-01 -5.9591643516906845e-01  1.9894436063053159e-01 -5.9591643516906834e-01  7.3416677587813561e-01  2.3742761098112347e-01
5.031641046056430e+10  7.3419097943332545e-01  2.3739488877326939e-01  1.9890927231248137e-01 -5.9591182198850090e-01  1.9890927231248143e-01 -5.9591182198850090e-01  7.3419097943332534e-01  2.3739488877326931e-01
5.031989859807086e+10  7.3421518016053822e-01  2.3736216345864003e-01  1.9887418480909885e-01 -5.9590720835704569e-01  1.9887418480909883e-01 -5.9590720835704558e-01  7.3421518016053822e-01  2.3736216345863997e-01
