# Hz S RI R 50

4.999999999999999e+10  9.1868169582377890e-01  1.6311050635821500e-01  6.4327606195873036e-02 -3.4561685242509232e-01  6.4327606195873063e-02 -3.4561685242509238e-01  9.1868169582377890e-01  1.6311050635821500e-01
5.000346620265101e+10  9.1869141455140502e-01  1.6308478822936701e-01  6.4315054133087662e-02 -3.4560617737579363e-01  6.4315054133087649e-02 -3.4560617737579363e-01  9.1869141455140524e-01  1.6308478822936703e-01
5.000693264559344e+10  9.1870113172752310e-01  1.6305906961525568e-01  6.4302503075285317e-02 -3.4559550345056395e-01  6.4302503075285303e-02 -3.4559550345056389e-01  9.1870113172752321e-01  1.6305906961525571e-01
5.001039932884355e+10  9.1871084735217534e-01  1.6303335051581327e-01  6.4289953022295926e-02 -3.4558483064959006e-01  6.4289953022295926e-02 -3.4558483064959006e-01  9.1871084735217512e-01  1.6303335051581325e-01
5.001386625241840e+10  9.1872056142540504e-01  1.6300763093096560e-01  6.4277403973946337e-02 -3.4557415897305577e-01  6.4277403973946337e-02 -3.4557415897305577e-01  9.1872056142540526e-01  1.6300763093096565e-01
5.001733341633423e+10  9.1873027394725482e-01  1.6298191086064484e-01  6.4264855930066422e-02 -3.4556348842114765e-01  6.4264855930066450e-02 -3.4556348842114765e-01  9.1873027394725504e-01  1.6298191086064490e-01
5.002080082060812e+10  9.1873998491776832e-01  1.6295619030477695e-01  6.4252308890483154e-02 -3.4555281899404983e-01  6.4252308890483154e-02 -3.4555281899404983e-01  9.1873998491776854e-01  1.6295619030477701e-01
5.002426846525632e+10  9.1874969433698683e-01  1.6293046926329355e-01  6.4239762855026181e-02 -3.4554215069194838e-01  6.4239762855026181e-02 -3.4554215069194832e-01  9.1874969433698661e-01  1.6293046926329349e-01
5.002773635029591e+10  9.1875940220495467e-01  1.6290474773612085e-01  6.4227217823522489e-02 -3.4553148351502788e-01  6.4227217823522489e-02 -3.4553148351502783e-01  9.1875940220495467e-01  1.6290474773612085e-01
5.003120447574315e+10  9.1876910852171390e-01  1.6287902572319046e-01  6.4214673795801883e-02 -3.4552081746347463e-01  6.4214673795801855e-02 -3.4552081746347457e-01  9.1876910852171390e-01  1.6287902572319046e-01
5.003467284161490e+10  9.1877881328730704e-01  1.6285330322442923e-01  6.4202130771691568e-02 -3.4551015253747308e-01  6.4202130771691582e-02 -3.4551015253747319e-01  9.1877881328730726e-01  1.6285330322442929e-01
5.003814144792802e+10  9.1878851650177762e-01  1.6282758023976490e-01  6.4189588751019475e-02 -3.4549948873720809e-01  6.4189588751019502e-02 -3.4549948873720809e-01  9.1878851650177740e-01  1.6282758023976490e-01
5.004161029469880e+10  9.1879821816516738e-01  1.6280185676912901e-01  6.4177047733615197e-02 -3.4548882606286629e-01  6.4177047733615183e-02 -3.4548882606286624e-01  9.1879821816516738e-01  1.6280185676912901e-01
5.004507938194429e+10  9.1880791827752040e-01  1.6277613281244691e-01  6.4164507719305403e-02 -3.4547816451463165e-01  6.4164507719305389e-02 -3.4547816451463154e-01  9.1880791827752017e-01  1.6277613281244682e-01
5.004854870968077e+10  9.1881761683887753e-01  1.6275040836965016e-01  6.4151968707919824e-02 -3.4546750409269056e-01  6.4151968707919838e-02 -3.4546750409269056e-01  9.1881761683887775e-01  1.6275040836965021e-01
5.005201827792532e+10  9.1882731384928384e-01  1.6272468344066451e-01  6.4139430699285224e-02 -3.4545684479722738e-01  6.4139430699285224e-02 -3.4545684479722744e-01  9.1882731384928362e-01  1.6272468344066449e-01
5.005548808669419e+10  9.1883700930877932e-01  1.6269895802542117e-01  6.4126893693231185e-02 -3.4544618662842874e-01  6.4126893693231199e-02 -3.4544618662842869e-01  9.1883700930877910e-01  1.6269895802542114e-01
5.005895813600447e+10  9.1884670321740824e-01  1.6267323212384563e-01  6.4114357689584511e-02 -3.4543552958647838e-01  6.4114357689584511e-02 -3.4543552958647838e-01  9.1884670321740824e-01  1.6267323212384563e-01
5.006242842587244e+10  9.1885639557521270e-01  1.6264750573586909e-01  6.4101822688174659e-02 -3.4542487367156322e-01  6.4101822688174617e-02 -3.4542487367156322e-01  9.1885639557521293e-01  1.6264750573586914e-01
5.006589895631516e+10  9.1886608638223610e-01  1.6262177886141690e-01  6.4089288688828322e-02 -3.4541421888386720e-01  6.4089288688828322e-02 -3.4541421888386731e-01  9.1886608638223588e-01  1.6262177886141690e-01
5.006936972734892e+10  9.1887577563851930e-01  1.6259605150042034e-01  6.4076755691375123e-02 -3.4540356522357707e-01  6.4076755691375151e-02 -3.4540356522357718e-01  9.1887577563851952e-01  1.6259605150042036e-01
5.007284073899059e+10  9.1888546334410615e-01  1.6257032365280619e-01  6.4064223695642422e-02 -3.4539291269087763e-01  6.4064223695642394e-02 -3.4539291269087752e-01  9.1888546334410637e-01  1.6257032365280619e-01
5.007631199125706e+10  9.1889514949903983e-01  1.6254459531850068e-01  6.4051692701457441e-02 -3.4538226128595328e-01  6.4051692701457441e-02 -3.4538226128595328e-01  9.1889514949903961e-01  1.6254459531850063e-01
5.007978348416460e+10  9.1890483410336066e-01  1.6251886649743527e-01  6.4039162708649788e-02 -3.4537161100899100e-01  6.4039162708649774e-02 -3.4537161100899094e-01  9.1890483410336066e-01  1.6251886649743527e-01
5.008325521773032e+10  9.1891451715711359e-01  1.6249313718953490e-01  6.4026633717046047e-02 -3.4536096186017495e-01  6.4026633717046047e-02 -3.4536096186017506e-01  9.1891451715711359e-01  1.6249313718953493e-01
5.008672719197046e+10  9.1892419866033881e-01  1.6246740739473042e-01  6.4014105726475604e-02 -3.4535031383969167e-01  6.4014105726475617e-02 -3.4535031383969167e-01  9.1892419866033892e-01  1.6246740739473042e-01
5.009019940690213e+10  9.1893387861308029e-01  1.6244167711294696e-01  6.4001578736765097e-02 -3.4533966694772539e-01  6.4001578736765097e-02 -3.4533966694772533e-01  9.1893387861308007e-01  1.6244167711294691e-01
5.009367186254161e+10  9.1894355701538000e-01  1.6241594634411527e-01  6.3989052747743885e-02 -3.4532902118446274e-01  6.3989052747743899e-02 -3.4532902118446285e-01  9.1894355701537989e-01  1.6241594634411521e-01
5.009714455890599e+10  9.1895323386728045e-01  1.6239021508816037e-01  6.3976527759238622e-02 -3.4531837655008812e-01  6.3976527759238594e-02 -3.4531837655008807e-01  9.1895323386728067e-01  1.6239021508816043e-01
5.010061749601157e+10  9.1896290916882351e-01  1.6236448334501269e-01  6.3964003771078443e-02 -3.4530773304478790e-01  6.3964003771078401e-02 -3.4530773304478779e-01  9.1896290916882373e-01  1.6236448334501269e-01
5.010409067387521e+10  9.1897258292005213e-01  1.6233875111459886e-01  6.3951480783090764e-02 -3.4529709066874703e-01  6.3951480783090722e-02 -3.4529709066874692e-01  9.1897258292005202e-01  1.6233875111459881e-01
5.010756409251382e+10  9.1898225512100895e-01  1.6231301839684464e-01  6.3938958795102571e-02 -3.4528644942215048e-01  6.3938958795102599e-02 -3.4528644942215053e-01  9.1898225512100873e-01  1.6231301839684459e-01
5.011103775194369e+10  9.1899192577173527e-01  1.6228728519168115e-01  6.3926437806943542e-02 -3.4527580930518503e-01  6.3926437806943542e-02 -3.4527580930518503e-01  9.1899192577173527e-01  1.6228728519168115e-01
5.011451165218192e+10  9.1900159487227462e-01  1.6226155149903243e-01  6.3913917818439650e-02 -3.4526517031803466e-01  6.3913917818439636e-02 -3.4526517031803461e-01  9.1900159487227462e-01  1.6226155149903243e-01
5.011798579324477e+10  9.1901126242266751e-01  1.6223581731882941e-01  6.3901398829420586e-02 -3.4525453246088617e-01  6.3901398829420572e-02 -3.4525453246088611e-01  9.1901126242266773e-01  1.6223581731882947e-01
5.012146017514938e+10  9.1902092842295868e-01  1.6221008265099651e-01  6.3888880839712545e-02 -3.4524389573392411e-01  6.3888880839712503e-02 -3.4524389573392400e-01  9.1902092842295890e-01  1.6221008265099654e-01
5.012493479791202e+10  9.1903059287318811e-01  1.6218434749546404e-01  6.3876363849144774e-02 -3.4523326013733480e-01  6.3876363849144774e-02 -3.4523326013733485e-01  9.1903059287318789e-01  1.6218434749546401e-01
5.012840966154979e+10  9.1904025577339965e-01  1.6215861185215644e-01  6.3863847857543676e-02 -3.4522262567130274e-01  6.3863847857543676e-02 -3.4522262567130274e-01  9.1904025577339943e-01  1.6215861185215641e-01
5.013188476607899e+10  9.1904991712363415e-01  1.6213287572100402e-01  6.3851332864738528e-02 -3.4521199233601485e-01  6.3851332864738555e-02 -3.4521199233601496e-01  9.1904991712363415e-01  1.6213287572100402e-01
5.013536011151653e+10  9.1905957692393425e-01  1.6210713910193261e-01  6.3838818870556341e-02 -3.4520136013165581e-01  6.3838818870556327e-02 -3.4520136013165581e-01  9.1905957692393425e-01  1.6210713910193261e-01
5.013883569787929e+10  9.1906923517434280e-01  1.6208140199486784e-01  6.3826305874824019e-02 -3.4519072905841058e-01  6.3826305874824033e-02 -3.4519072905841058e-01  9.1906923517434280e-01  1.6208140199486784e-01
5.014231152518359e+10  9.1907889187490122e-01  1.6205566439973998e-01  6.3813793877370892e-02 -3.4518009911646608e-01  6.3813793877370892e-02 -3.4518009911646608e-01  9.1907889187490122e-01  1.6205566439973998e-01
5.014578759344653e+10  9.1908854702565257e-01  1.6202992631647292e-01  6.3801282878023099e-02 -3.4516947030600648e-01  6.3801282878023113e-02 -3.4516947030600659e-01  9.1908854702565268e-01  1.6202992631647292e-01
5.014926390268440e+10  9.1909820062663716e-01  1.6200418774499714e-01  6.3788772876609875e-02 -3.4515884262721869e-01  6.3788772876609903e-02 -3.4515884262721869e-01  9.1909820062663738e-01  1.6200418774499720e-01
5.015274045291432e+10  9.1910785267789907e-01  1.6197844868523653e-01  6.3776263872957470e-02 -3.4514821608028712e-01  6.3776263872957498e-02 -3.4514821608028723e-01  9.1910785267789896e-01  1.6197844868523650e-01
5.015621724415260e+10  9.1911750317947871e-01  1.6195270913712084e-01  6.3763755866894853e-02 -3.4513759066539851e-01  6.3763755866894853e-02 -3.4513759066539851e-01  9.1911750317947871e-01  1.6195270913712087e-01
5.015969427641633e+10  9.1912715213141982e-01  1.6192696910057433e-01  6.3751248858248330e-02 -3.4512696638273727e-01  6.3751248858248330e-02 -3.4512696638273721e-01  9.1912715213141982e-01  1.6192696910057433e-01
5.016317154972183e+10  9.1913679953376237e-01  1.6190122857552650e-01  6.3738742846846885e-02 -3.4511634323249007e-01  6.3738742846846885e-02 -3.4511634323249007e-01  9.1913679953376237e-01  1.6190122857552650e-01
5.016664906408601e+10  9.1914644538654999e-01  1.6187548756190304e-01  6.3726237832517463e-02 -3.4510572121484229e-01  6.3726237832517477e-02 -3.4510572121484229e-01  9.1914644538654977e-01  1.6187548756190301e-01
5.017012681952579e+10  9.1915608968982432e-01  1.6184974605962898e-01  6.3713733815086881e-02 -3.4509510032997848e-01  6.3713733815086881e-02 -3.4509510032997848e-01  9.1915608968982432e-01  1.6184974605962898e-01
5.017360481605746e+10  9.1916573244362687e-01  1.6182400406863426e-01  6.3701230794384237e-02 -3.4508448057808588e-01  6.3701230794384250e-02 -3.4508448057808583e-01  9.1916573244362665e-01  1.6182400406863423e-01
5.017708305369815e+10  9.1917537364799973e-01  1.6179826158884208e-01  6.3688728770235431e-02 -3.4507386195934858e-01  6.3688728770235431e-02 -3.4507386195934864e-01  9.1917537364799973e-01  1.6179826158884208e-01
5.018056153246417e+10  9.1918501330298519e-01  1.6177251862018280e-01  6.3676227742469685e-02 -3.4506324447395376e-01  6.3676227742469685e-02 -3.4506324447395387e-01  9.1918501330298519e-01  1.6177251862018280e-01
5.018404025237263e+10  9.1919465140862522e-01  1.6174677516257946e-01  6.3663727710912929e-02 -3.4505262812208581e-01  6.3663727710912943e-02 -3.4505262812208581e-01  9.1919465140862544e-01  1.6174677516257949e-01
5.018751921343987e+10  9.1920428796496090e-01  1.6172103121596168e-01  6.3651228675394106e-02 -3.4504201290393149e-01  6.3651228675394092e-02 -3.4504201290393149e-01  9.1920428796496068e-01  1.6172103121596165e-01
5.019099841568298e+10  9.1921392297203475e-01  1.6169528678025294e-01  6.3638730635739271e-02 -3.4503139881967532e-01  6.3638730635739257e-02 -3.4503139881967532e-01  9.1921392297203475e-01  1.6169528678025294e-01
5.019447785911829e+10  9.1922355642988851e-01  1.6166954185538274e-01  6.3626233591777201e-02 -3.4502078586950424e-01  6.3626233591777215e-02 -3.4502078586950424e-01  9.1922355642988829e-01  1.6166954185538268e-01
5.019795754376292e+10  9.1923318833856393e-01  1.6164379644127458e-01  6.3613737543334228e-02 -3.4501017405360285e-01  6.3613737543334214e-02 -3.4501017405360285e-01  9.1923318833856393e-01  1.6164379644127458e-01
5.020143746963321e+10  9.1924281869810276e-01  1.6161805053785741e-01  6.3601242490238824e-02 -3.4499956337215787e-01  6.3601242490238810e-02 -3.4499956337215770e-01  9.1924281869810276e-01  1.6161805053785741e-01
5.020491763674605e+10  9.1925244750854618e-01  1.6159230414505635e-01  6.3588748432317974e-02 -3.4498895382535444e-01  6.3588748432317946e-02 -3.4498895382535433e-01  9.1925244750854618e-01  1.6159230414505635e-01
5.020839804511838e+10  9.1926207476993793e-01  1.6156655726279573e-01  6.3576255369397996e-02 -3.4497834541337757e-01  6.3576255369398024e-02 -3.4497834541337768e-01  9.1926207476993782e-01  1.6156655726279570e-01
5.021187869476653e+10  9.1927170048231754e-01  1.6154080989100505e-01  6.3563763301308057e-02 -3.4496773813641457e-01  6.3563763301308057e-02 -3.4496773813641457e-01  9.1927170048231732e-01  1.6154080989100505e-01
5.021535958570761e+10  9.1928132464572787e-01  1.6151506202960747e-01  6.3551272227873934e-02 -3.4495713199464972e-01  6.3551272227873920e-02 -3.4495713199464972e-01  9.1928132464572787e-01  1.6151506202960747e-01
5.021884071795797e+10  9.1929094726021021e-01  1.6148931367853184e-01  6.3538782148924333e-02 -3.4494652698827011e-01  6.3538782148924319e-02 -3.4494652698827005e-01  9.1929094726021021e-01  1.6148931367853184e-01
5.022232209153472e+10  9.1930056832580642e-01  1.6146356483770136e-01  6.3526293064285227e-02 -3.4493592311746007e-01  6.3526293064285241e-02 -3.4493592311746007e-01  9.1930056832580642e-01  1.6146356483770136e-01
5.022580370645420e+10  9.1931018784255791e-01  1.6143781550704484e-01  6.3513804973785268e-02 -3.4492532038240686e-01  6.3513804973785268e-02 -3.4492532038240686e-01  9.1931018784255791e-01  1.6143781550704484e-01
5.022928556273354e+10  9.1931980581050698e-01  1.6141206568648525e-01  6.3501317877250357e-02 -3.4491471878329477e-01  6.3501317877250357e-02 -3.4491471878329488e-01  9.1931980581050676e-01  1.6141206568648520e-01
5.023276766038906e+10  9.1932942222969460e-01  1.6138631537595152e-01  6.3488831774509091e-02 -3.4490411832031115e-01  6.3488831774509105e-02 -3.4490411832031115e-01  9.1932942222969460e-01  1.6138631537595152e-01
5.023624999943771e+10  9.1933903710016218e-01  1.6136056457536782e-01  6.3476346665388123e-02 -3.4489351899364085e-01  6.3476346665388123e-02 -3.4489351899364085e-01  9.1933903710016218e-01  1.6136056457536782e-01
5.023973257989641e+10  9.1934865042195246e-01  1.6133481328465893e-01  6.3463862549714034e-02 -3.4488292080346955e-01  6.3463862549714034e-02 -3.4488292080346955e-01  9.1934865042195268e-01  1.6133481328465901e-01
5.024321540178151e+10  9.1935826219510564e-01  1.6130906150375265e-01  6.3451379427315074e-02 -3.4487232374998361e-01  6.3451379427315074e-02 -3.4487232374998361e-01  9.1935826219510541e-01  1.6130906150375263e-01
5.024669846511014e+10  9.1936787241966400e-01  1.6128330923257245e-01  6.3438897298017410e-02 -3.4486172783336816e-01  6.3438897298017410e-02 -3.4486172783336816e-01  9.1936787241966411e-01  1.6128330923257250e-01
5.025018176989863e+10  9.1937748109566864e-01  1.6125755647104656e-01  6.3426416161649429e-02 -3.4485113305381004e-01  6.3426416161649443e-02 -3.4485113305381015e-01  9.1937748109566864e-01  1.6125755647104656e-01
5.025366531616412e+10  9.1938708822316184e-01  1.6123180321909764e-01  6.3413936018036937e-02 -3.4484053941149401e-01  6.3413936018036937e-02 -3.4484053941149401e-01  9.1938708822316195e-01  1.6123180321909766e-01
5.025714910392297e+10  9.1939669380218414e-01  1.6120604947665407e-01  6.3401456867008349e-02 -3.4482994690660690e-01  6.3401456867008391e-02 -3.4482994690660695e-01  9.1939669380218414e-01  1.6120604947665407e-01
5.026063313319231e+10  9.1940629783277783e-01  1.6118029524363867e-01  6.3388978708389596e-02 -3.4481935553933374e-01  6.3388978708389582e-02 -3.4481935553933368e-01  9.1940629783277783e-01  1.6118029524363867e-01
5.026411740398846e+10  9.1941590031498344e-01  1.6115454051997954e-01  6.3376501542009023e-02 -3.4480876530986132e-01  6.3376501542009037e-02 -3.4480876530986132e-01  9.1941590031498344e-01  1.6115454051997954e-01
5.026760191632840e+10  9.1942550124884259e-01  1.6112878530560062e-01  6.3364025367693061e-02 -3.4479817621837505e-01  6.3364025367693061e-02 -3.4479817621837505e-01  9.1942550124884259e-01  1.6112878530560062e-01
5.027108667022906e+10  9.1943510063439771e-01  1.6110302960042558e-01  6.3351550185267932e-02 -3.4478758826506006e-01  6.3351550185267877e-02 -3.4478758826505995e-01  9.1943510063439771e-01  1.6110302960042558e-01
5.027457166570677e+10  9.1944469847168842e-01  1.6107727340438305e-01  6.3339075994562316e-02 -3.4477700145010365e-01  6.3339075994562330e-02 -3.4477700145010365e-01  9.1944469847168842e-01  1.6107727340438305e-01
5.027805690277870e+10  9.1945429476075791e-01  1.6105151671739493e-01  6.3326602795401657e-02 -3.4476641577369038e-01  6.3326602795401699e-02 -3.4476641577369049e-01  9.1945429476075780e-01  1.6105151671739487e-01
5.028154238146119e+10  9.1946388950164615e-01  1.6102575953938961e-01  6.3314130587614537e-02 -3.4475583123600773e-01  6.3314130587614523e-02 -3.4475583123600767e-01  9.1946388950164604e-01  1.6102575953938961e-01
5.028502810177139e+10  9.1947348269439499e-01  1.6100000187028879e-01  6.3301659371026248e-02 -3.4474524783723981e-01  6.3301659371026234e-02 -3.4474524783723975e-01  9.1947348269439522e-01  1.6100000187028884e-01
5.028851406372565e+10  9.1948307433904553e-01  1.6097424371002098e-01  6.3289189145465399e-02 -3.4473466557757415e-01  6.3289189145465413e-02 -3.4473466557757415e-01  9.1948307433904530e-01  1.6097424371002092e-01
5.029200026734111e+10  9.1949266443563937e-01  1.6094848505850806e-01  6.3276719910757576e-02 -3.4472408445719560e-01  6.3276719910757576e-02 -3.4472408445719560e-01  9.1949266443563937e-01  1.6094848505850806e-01
5.029548671263415e+10  9.1950225298421762e-01  1.6092272591567783e-01  6.3264251666730900e-02 -3.4471350447629101e-01  6.3264251666730928e-02 -3.4471350447629112e-01  9.1950225298421762e-01  1.6092272591567780e-01
5.029897339962190e+10  9.1951183998482133e-01  1.6089696628145228e-01  6.3251784413210999e-02 -3.4470292563504540e-01  6.3251784413210985e-02 -3.4470292563504540e-01  9.1951183998482133e-01  1.6089696628145228e-01
5.030246032832072e+10  9.1952142543749160e-01  1.6087120615575942e-01  6.3239318150026230e-02 -3.4469234793364595e-01  6.3239318150026202e-02 -3.4469234793364584e-01  9.1952142543749160e-01  1.6087120615575942e-01
5.030594749874757e+10  9.1953100934226950e-01  1.6084544553852229e-01  6.3226852877002707e-02 -3.4468177137227773e-01  6.3226852877002720e-02 -3.4468177137227785e-01  9.1953100934226972e-01  1.6084544553852234e-01
5.030943491091942e+10  9.1954059169919766e-01  1.6081968442966446e-01  6.3214388593966553e-02 -3.4467119595112655e-01  6.3214388593966553e-02 -3.4467119595112655e-01  9.1954059169919788e-01  1.6081968442966452e-01
5.031292256485260e+10  9.1955017250831472e-01  1.6079392282911337e-01  6.3201925300746115e-02 -3.4466062167037931e-01  6.3201925300746128e-02 -3.4466062167037931e-01  9.1955017250831472e-01  1.6079392282911337e-01
5.031641046056430e+10  9.1955975176966431e-01  1.6076816073679076e-01  6.3189462997166684e-02 -3.4465004853022113e-01  6.3189462997166684e-02 -3.4465004853022113e-01  9.1955975176966454e-01  1.6076816073679079e-01
5.031989859807086e+10  9.1956932948328585e-01  1.6074239815262428e-01  6.3177001683056594e-02 -3.4463947653083893e-01  6.3177001683056580e-02 -3.4463947653083893e-01  9.1956932948328585e-01  1.6074239815262428e-01
